date Tue Oct 28 14:00:24.965 2025
base hex  timestamps absolute
internal events logged
// version 19.2.0
// Measurement UUID: 712d5341-13da-4514-8d8c-229c62d5f2d3
Begin TriggerBlock Tue Oct 28 14:00:24.965 2025
   0.000000 Start of measurement
   0.020066 CAN 1 Status:chip status error active
   1.020100 1   Statistic: D 0 R 0 XD 0 XR 0 E 0 O 0 B 0.00%
   1.020100 CAN 1 Status:chip status error active
   2.020132 1   Statistic: D 0 R 0 XD 0 XR 0 E 0 O 0 B 0.00%
   2.020132 CAN 1 Status:chip status error active
   3.020163 1   Statistic: D 0 R 0 XD 0 XR 0 E 0 O 0 B 0.00%
   3.020163 CAN 1 Status:chip status error active
   4.020195 1   Statistic: D 0 R 0 XD 0 XR 0 E 0 O 0 B 0.00%
   4.020195 CAN 1 Status:chip status error active
   5.020228 1   Statistic: D 0 R 0 XD 0 XR 0 E 0 O 0 B 0.00%
   5.020228 CAN 1 Status:chip status error active
   6.020262 1   Statistic: D 0 R 0 XD 0 XR 0 E 0 O 0 B 0.00%
   6.020262 CAN 1 Status:chip status error active
   7.020294 1   Statistic: D 0 R 0 XD 0 XR 0 E 0 O 0 B 0.00%
   7.020294 CAN 1 Status:chip status error active
   7.397329 1  1               Rx   d 8 01 0C 02 0D 03 0F 00 00  Length = 467926 BitCount = 121 ID = 1
   8.020326 1   Statistic: D 1 R 0 XD 0 XR 0 E 0 O 0 B 0.04%
   8.020326 CAN 1 Status:chip status error active
   9.020358 1   Statistic: D 0 R 0 XD 0 XR 0 E 0 O 0 B 0.00%
   9.020358 CAN 1 Status:chip status error active
  10.020390 1   Statistic: D 0 R 0 XD 0 XR 0 E 0 O 0 B 0.00%
  10.020390 CAN 1 Status:chip status error active
  10.826422 1  300             Tx   d 8 02 00 00 00 00 00 00 00  Length = 488016 BitCount = 125 ID = 768
  10.826926 1  444             Rx   d 8 02 00 00 00 00 00 00 00  Length = 483911 BitCount = 125 ID = 1092
  10.827386 1  100             Rx   d 8 64 03 21 21 21 C8 C8 C8  Length = 443925 BitCount = 115 ID = 256
  10.827882 1  100             Rx   d 8 01 78 64 00 00 00 00 00  Length = 479911 BitCount = 124 ID = 256
  10.828342 1  100             Rx   d 8 64 64 64 64 64 64 01 01  Length = 443911 BitCount = 115 ID = 256
  11.020422 1   Statistic: D 5 R 0 XD 0 XR 0 E 0 O 0 B 0.24%
  11.020422 CAN 1 Status:chip status error active
  11.061522 1  300             Tx   d 8 02 00 00 00 00 00 00 00  Length = 488000 BitCount = 125 ID = 768
  11.062026 1  444             Rx   d 8 02 00 00 00 00 00 00 00  Length = 483910 BitCount = 125 ID = 1092
  11.062486 1  100             Rx   d 8 64 03 21 21 21 C8 C8 C8  Length = 443926 BitCount = 115 ID = 256
  11.062982 1  100             Rx   d 8 01 78 64 00 00 00 00 00  Length = 479910 BitCount = 124 ID = 256
  11.063442 1  100             Rx   d 8 64 64 64 64 64 64 01 01  Length = 443910 BitCount = 115 ID = 256
  11.896837 1  201             Rx   d 1 62  Length = 215915 BitCount = 58 ID = 513
  11.897065 1  202             Rx   d 1 64  Length = 211915 BitCount = 57 ID = 514
  11.897293 1  203             Rx   d 1 63  Length = 211914 BitCount = 57 ID = 515
  11.897521 1  204             Rx   d 1 62  Length = 211914 BitCount = 57 ID = 516
  11.897749 1  205             Rx   d 1 63  Length = 211914 BitCount = 57 ID = 517
  11.897985 1  206             Rx   d 1 64  Length = 219930 BitCount = 59 ID = 518
  11.898213 1  207             Rx   d 1 64  Length = 211914 BitCount = 57 ID = 519
  11.898441 1  208             Rx   d 1 64  Length = 211914 BitCount = 57 ID = 520
  11.898673 1  209             Rx   d 1 00  Length = 215930 BitCount = 58 ID = 521
  11.898909 1  20A             Rx   d 1 62  Length = 219914 BitCount = 59 ID = 522
  11.899257 1  20B             Rx   d 4 00 00 00 00  Length = 331914 BitCount = 87 ID = 523
  11.899609 1  20C             Rx   d 4 02 00 00 00  Length = 335915 BitCount = 88 ID = 524
  11.899849 1  20D             Rx   d 1 00  Length = 223914 BitCount = 60 ID = 525
  12.020455 1   Statistic: D 18 R 0 XD 0 XR 0 E 0 O 0 B 0.56%
  12.020455 CAN 1 Status:chip status error active
  13.020489 1   Statistic: D 0 R 0 XD 0 XR 0 E 0 O 0 B 0.00%
  13.020489 CAN 1 Status:chip status error active
  13.396761 1  201             Rx   d 1 61  Length = 215915 BitCount = 58 ID = 513
  13.396989 1  202             Rx   d 1 64  Length = 211929 BitCount = 57 ID = 514
  13.397221 1  203             Rx   d 1 62  Length = 215914 BitCount = 58 ID = 515
  13.397453 1  204             Rx   d 1 60  Length = 215915 BitCount = 58 ID = 516
  13.397681 1  205             Rx   d 1 62  Length = 211914 BitCount = 57 ID = 517
  13.397917 1  206             Rx   d 1 64  Length = 219914 BitCount = 59 ID = 518
  13.398145 1  207             Rx   d 1 64  Length = 211914 BitCount = 57 ID = 519
  13.398373 1  208             Rx   d 1 64  Length = 211914 BitCount = 57 ID = 520
  13.398605 1  209             Rx   d 1 00  Length = 215914 BitCount = 58 ID = 521
  13.398833 1  20A             Rx   d 1 61  Length = 211930 BitCount = 57 ID = 522
  13.399181 1  20B             Rx   d 4 00 00 00 00  Length = 331914 BitCount = 87 ID = 523
  13.399533 1  20C             Rx   d 4 02 00 00 00  Length = 335915 BitCount = 88 ID = 524
  13.399773 1  20D             Rx   d 1 00  Length = 223914 BitCount = 60 ID = 525
  14.020522 1   Statistic: D 13 R 0 XD 0 XR 0 E 0 O 0 B 0.32%
  14.020522 CAN 1 Status:chip status error active
  14.896676 1  201             Rx   d 1 61  Length = 215914 BitCount = 58 ID = 513
  14.896904 1  202             Rx   d 1 64  Length = 211914 BitCount = 57 ID = 514
  14.897136 1  203             Rx   d 1 62  Length = 215914 BitCount = 58 ID = 515
  14.897368 1  204             Rx   d 1 60  Length = 215914 BitCount = 58 ID = 516
  14.897596 1  205             Rx   d 1 62  Length = 211914 BitCount = 57 ID = 517
  14.897832 1  206             Rx   d 1 64  Length = 219914 BitCount = 59 ID = 518
  14.898060 1  207             Rx   d 1 64  Length = 211915 BitCount = 57 ID = 519
  14.898288 1  208             Rx   d 1 64  Length = 211914 BitCount = 57 ID = 520
  14.898520 1  209             Rx   d 1 00  Length = 215929 BitCount = 58 ID = 521
  14.898748 1  20A             Rx   d 1 61  Length = 211914 BitCount = 57 ID = 522
  14.899092 1  20B             Rx   d 4 01 00 00 00  Length = 327915 BitCount = 86 ID = 523
  14.899444 1  20C             Rx   d 4 02 00 00 00  Length = 335914 BitCount = 88 ID = 524
  14.899684 1  20D             Rx   d 1 00  Length = 223914 BitCount = 60 ID = 525
  15.020555 1   Statistic: D 13 R 0 XD 0 XR 0 E 0 O 0 B 0.32%
  15.020555 CAN 1 Status:chip status error active
  16.020587 1   Statistic: D 0 R 0 XD 0 XR 0 E 0 O 0 B 0.00%
  16.020587 CAN 1 Status:chip status error active
  16.396598 1  201             Rx   d 1 60  Length = 219929 BitCount = 59 ID = 513
  16.396826 1  202             Rx   d 1 63  Length = 211930 BitCount = 57 ID = 514
  16.397058 1  203             Rx   d 1 61  Length = 215914 BitCount = 58 ID = 515
  16.397286 1  204             Rx   d 1 5E  Length = 211914 BitCount = 57 ID = 516
  16.397514 1  205             Rx   d 1 61  Length = 211930 BitCount = 57 ID = 517
  16.397742 1  206             Rx   d 1 63  Length = 211914 BitCount = 57 ID = 518
  16.397970 1  207             Rx   d 1 63  Length = 211914 BitCount = 57 ID = 519
  16.398198 1  208             Rx   d 1 63  Length = 211930 BitCount = 57 ID = 520
  16.398430 1  209             Rx   d 1 00  Length = 215914 BitCount = 58 ID = 521
  16.398662 1  20A             Rx   d 1 60  Length = 215914 BitCount = 58 ID = 522
  16.399006 1  20B             Rx   d 4 01 00 00 00  Length = 327915 BitCount = 86 ID = 523
  16.399358 1  20C             Rx   d 4 02 00 00 00  Length = 335914 BitCount = 88 ID = 524
  16.399598 1  20D             Rx   d 1 00  Length = 223914 BitCount = 60 ID = 525
  17.020621 1   Statistic: D 13 R 0 XD 0 XR 0 E 0 O 0 B 0.32%
  17.020621 CAN 1 Status:chip status error active
  17.896514 1  201             Rx   d 1 5E  Length = 211914 BitCount = 57 ID = 513
  17.896742 1  202             Rx   d 1 63  Length = 211914 BitCount = 57 ID = 514
  17.896974 1  203             Rx   d 1 60  Length = 215915 BitCount = 58 ID = 515
  17.897210 1  204             Rx   d 1 5C  Length = 219930 BitCount = 59 ID = 516
  17.897446 1  205             Rx   d 1 60  Length = 219915 BitCount = 59 ID = 517
  17.897674 1  206             Rx   d 1 63  Length = 211914 BitCount = 57 ID = 518
  17.897902 1  207             Rx   d 1 63  Length = 211929 BitCount = 57 ID = 519
  17.898130 1  208             Rx   d 1 63  Length = 211914 BitCount = 57 ID = 520
  17.898362 1  209             Rx   d 1 00  Length = 215915 BitCount = 58 ID = 521
  17.898590 1  20A             Rx   d 1 5E  Length = 211914 BitCount = 57 ID = 522
  17.898934 1  20B             Rx   d 4 02 00 00 00  Length = 327914 BitCount = 86 ID = 523
  17.899286 1  20C             Rx   d 4 02 00 00 00  Length = 335914 BitCount = 88 ID = 524
  17.899526 1  20D             Rx   d 1 00  Length = 223914 BitCount = 60 ID = 525
  18.020658 1   Statistic: D 13 R 0 XD 0 XR 0 E 0 O 0 B 0.32%
  18.020658 CAN 1 Status:chip status error active
  19.020691 1   Statistic: D 0 R 0 XD 0 XR 0 E 0 O 0 B 0.00%
  19.020691 CAN 1 Status:chip status error active
  19.396436 1  201             Rx   d 1 5D  Length = 211915 BitCount = 57 ID = 513
  19.396664 1  202             Rx   d 1 63  Length = 211914 BitCount = 57 ID = 514
  19.396896 1  203             Rx   d 1 5F  Length = 215915 BitCount = 58 ID = 515
  19.397124 1  204             Rx   d 1 5A  Length = 211914 BitCount = 57 ID = 516
  19.397360 1  205             Rx   d 1 5F  Length = 219914 BitCount = 59 ID = 517
  19.397588 1  206             Rx   d 1 63  Length = 211914 BitCount = 57 ID = 518
  19.397816 1  207             Rx   d 1 63  Length = 211915 BitCount = 57 ID = 519
  19.398044 1  208             Rx   d 1 63  Length = 211930 BitCount = 57 ID = 520
  19.398276 1  209             Rx   d 1 00  Length = 215915 BitCount = 58 ID = 521
  19.398504 1  20A             Rx   d 1 5D  Length = 211914 BitCount = 57 ID = 522
  19.398848 1  20B             Rx   d 4 02 00 00 00  Length = 327925 BitCount = 86 ID = 523
  19.399200 1  20C             Rx   d 4 02 00 00 00  Length = 335926 BitCount = 88 ID = 524
  19.399440 1  20D             Rx   d 1 00  Length = 223914 BitCount = 60 ID = 525
  20.020720 1   Statistic: D 13 R 0 XD 0 XR 0 E 0 O 0 B 0.32%
  20.020720 CAN 1 Status:chip status error active
  20.896345 1  201             Rx   d 1 5D  Length = 211914 BitCount = 57 ID = 513
  20.896573 1  202             Rx   d 1 63  Length = 211914 BitCount = 57 ID = 514
  20.896805 1  203             Rx   d 1 5F  Length = 215914 BitCount = 58 ID = 515
  20.897033 1  204             Rx   d 1 5A  Length = 211914 BitCount = 57 ID = 516
  20.897269 1  205             Rx   d 1 5F  Length = 219914 BitCount = 59 ID = 517
  20.897497 1  206             Rx   d 1 63  Length = 211914 BitCount = 57 ID = 518
  20.897725 1  207             Rx   d 1 63  Length = 211930 BitCount = 57 ID = 519
  20.897953 1  208             Rx   d 1 63  Length = 211914 BitCount = 57 ID = 520
  20.898185 1  209             Rx   d 1 00  Length = 215914 BitCount = 58 ID = 521
  20.898413 1  20A             Rx   d 1 5D  Length = 211930 BitCount = 57 ID = 522
  20.898757 1  20B             Rx   d 4 03 00 00 00  Length = 327914 BitCount = 86 ID = 523
  20.899109 1  20C             Rx   d 4 02 00 00 00  Length = 335914 BitCount = 88 ID = 524
  20.899349 1  20D             Rx   d 1 00  Length = 223914 BitCount = 60 ID = 525
  21.020750 1   Statistic: D 13 R 0 XD 0 XR 0 E 0 O 0 B 0.32%
  21.020750 CAN 1 Status:chip status error active
  22.020785 1   Statistic: D 0 R 0 XD 0 XR 0 E 0 O 0 B 0.00%
  22.020785 CAN 1 Status:chip status error active
  22.396270 1  201             Rx   d 1 5C  Length = 215914 BitCount = 58 ID = 513
  22.396498 1  202             Rx   d 1 63  Length = 211914 BitCount = 57 ID = 514
  22.396726 1  203             Rx   d 1 5E  Length = 211929 BitCount = 57 ID = 515
  22.396954 1  204             Rx   d 1 58  Length = 211914 BitCount = 57 ID = 516
  22.397182 1  205             Rx   d 1 5E  Length = 211915 BitCount = 57 ID = 517
  22.397410 1  206             Rx   d 1 63  Length = 211930 BitCount = 57 ID = 518
  22.397638 1  207             Rx   d 1 63  Length = 211915 BitCount = 57 ID = 519
  22.397866 1  208             Rx   d 1 63  Length = 211914 BitCount = 57 ID = 520
  22.398098 1  209             Rx   d 1 00  Length = 215914 BitCount = 58 ID = 521
  22.398326 1  20A             Rx   d 1 5C  Length = 211914 BitCount = 57 ID = 522
  22.398670 1  20B             Rx   d 4 03 00 00 00  Length = 327926 BitCount = 86 ID = 523
  22.399022 1  20C             Rx   d 4 02 00 00 00  Length = 335926 BitCount = 88 ID = 524
  22.399262 1  20D             Rx   d 1 00  Length = 223930 BitCount = 60 ID = 525
  23.020816 1   Statistic: D 13 R 0 XD 0 XR 0 E 0 O 0 B 0.32%
  23.020816 CAN 1 Status:chip status error active
  23.896185 1  201             Rx   d 1 5A  Length = 215914 BitCount = 58 ID = 513
  23.896413 1  202             Rx   d 1 63  Length = 211915 BitCount = 57 ID = 514
  23.896641 1  203             Rx   d 1 5D  Length = 211914 BitCount = 57 ID = 515
  23.896869 1  204             Rx   d 1 56  Length = 211929 BitCount = 57 ID = 516
  23.897101 1  205             Rx   d 1 5D  Length = 215914 BitCount = 58 ID = 517
  23.897329 1  206             Rx   d 1 63  Length = 211915 BitCount = 57 ID = 518
  23.897557 1  207             Rx   d 1 63  Length = 211914 BitCount = 57 ID = 519
  23.897785 1  208             Rx   d 1 63  Length = 211914 BitCount = 57 ID = 520
  23.898017 1  209             Rx   d 1 00  Length = 215914 BitCount = 58 ID = 521
  23.898249 1  20A             Rx   d 1 5A  Length = 215914 BitCount = 58 ID = 522
  23.898593 1  20B             Rx   d 4 04 00 00 00  Length = 327914 BitCount = 86 ID = 523
  23.898945 1  20C             Rx   d 4 02 00 00 00  Length = 335915 BitCount = 88 ID = 524
  23.899184 1  20D             Rx   d 1 00  Length = 223914 BitCount = 60 ID = 525
  24.020846 1   Statistic: D 13 R 0 XD 0 XR 0 E 0 O 0 B 0.32%
  24.020846 CAN 1 Status:chip status error active
  25.020876 1   Statistic: D 0 R 0 XD 0 XR 0 E 0 O 0 B 0.00%
  25.020876 CAN 1 Status:chip status error active
  25.396100 1  201             Rx   d 1 59  Length = 211915 BitCount = 57 ID = 513
  25.396328 1  202             Rx   d 1 62  Length = 211914 BitCount = 57 ID = 514
  25.396560 1  203             Rx   d 1 5C  Length = 215914 BitCount = 58 ID = 515
  25.396792 1  204             Rx   d 1 54  Length = 215930 BitCount = 58 ID = 516
  25.397024 1  205             Rx   d 1 5C  Length = 215914 BitCount = 58 ID = 517
  25.397252 1  206             Rx   d 1 62  Length = 211914 BitCount = 57 ID = 518
  25.397480 1  207             Rx   d 1 62  Length = 211930 BitCount = 57 ID = 519
  25.397712 1  208             Rx   d 1 62  Length = 215914 BitCount = 58 ID = 520
  25.397944 1  209             Rx   d 1 00  Length = 215914 BitCount = 58 ID = 521
  25.398172 1  20A             Rx   d 1 59  Length = 211930 BitCount = 57 ID = 522
  25.398516 1  20B             Rx   d 4 04 00 00 00  Length = 327914 BitCount = 86 ID = 523
  25.398868 1  20C             Rx   d 4 02 00 00 00  Length = 335914 BitCount = 88 ID = 524
  25.399108 1  20D             Rx   d 1 00  Length = 223914 BitCount = 60 ID = 525
  26.020908 1   Statistic: D 13 R 0 XD 0 XR 0 E 0 O 0 B 0.32%
  26.020908 CAN 1 Status:chip status error active
  26.132063 1  301             Tx   d 8 00 00 00 00 00 00 00 00  Length = 492015 BitCount = 126 ID = 769
  26.132571 1  444             Rx   d 8 00 00 00 00 00 00 00 00  Length = 487910 BitCount = 126 ID = 1092
  26.896014 1  201             Rx   d 1 59  Length = 211915 BitCount = 57 ID = 513
  26.896242 1  202             Rx   d 1 62  Length = 211929 BitCount = 57 ID = 514
  26.896474 1  203             Rx   d 1 5C  Length = 215914 BitCount = 58 ID = 515
  26.896706 1  204             Rx   d 1 54  Length = 215915 BitCount = 58 ID = 516
  26.896938 1  205             Rx   d 1 5C  Length = 215914 BitCount = 58 ID = 517
  26.897166 1  206             Rx   d 1 62  Length = 211915 BitCount = 57 ID = 518
  26.897394 1  207             Rx   d 1 62  Length = 211914 BitCount = 57 ID = 519
  26.897626 1  208             Rx   d 1 62  Length = 215914 BitCount = 58 ID = 520
  26.897858 1  209             Rx   d 1 00  Length = 215914 BitCount = 58 ID = 521
  26.898086 1  20A             Rx   d 1 59  Length = 211930 BitCount = 57 ID = 522
  26.898426 1  20B             Rx   d 4 05 00 00 00  Length = 323914 BitCount = 85 ID = 523
  26.898777 1  20C             Rx   d 4 02 00 00 00  Length = 335915 BitCount = 88 ID = 524
  26.899017 1  20D             Rx   d 1 00  Length = 223914 BitCount = 60 ID = 525
  27.020940 1   Statistic: D 15 R 0 XD 0 XR 0 E 0 O 0 B 0.42%
  27.020940 CAN 1 Status:chip status error active
  28.020976 1   Statistic: D 0 R 0 XD 0 XR 0 E 0 O 0 B 0.00%
  28.020976 CAN 1 Status:chip status error active
  28.395945 1  201             Rx   d 1 58  Length = 215914 BitCount = 58 ID = 513
  28.396173 1  202             Rx   d 1 62  Length = 211914 BitCount = 57 ID = 514
  28.396401 1  203             Rx   d 1 5B  Length = 211915 BitCount = 57 ID = 515
  28.396633 1  204             Rx   d 1 52  Length = 215914 BitCount = 58 ID = 516
  28.396865 1  205             Rx   d 1 5B  Length = 215915 BitCount = 58 ID = 517
  28.397093 1  206             Rx   d 1 62  Length = 211914 BitCount = 57 ID = 518
  28.397321 1  207             Rx   d 1 62  Length = 211914 BitCount = 57 ID = 519
  28.397553 1  208             Rx   d 1 62  Length = 215914 BitCount = 58 ID = 520
  28.397785 1  209             Rx   d 1 00  Length = 215930 BitCount = 58 ID = 521
  28.398017 1  20A             Rx   d 1 58  Length = 215914 BitCount = 58 ID = 522
  28.398357 1  20B             Rx   d 4 05 00 00 00  Length = 323914 BitCount = 85 ID = 523
  28.398709 1  20C             Rx   d 4 02 00 00 00  Length = 335914 BitCount = 88 ID = 524
  28.398949 1  20D             Rx   d 1 00  Length = 223914 BitCount = 60 ID = 525
  29.021020 1   Statistic: D 13 R 0 XD 0 XR 0 E 0 O 0 B 0.32%
  29.021020 CAN 1 Status:chip status error active
  29.895864 1  201             Rx   d 1 56  Length = 211914 BitCount = 57 ID = 513
  29.896092 1  202             Rx   d 1 62  Length = 211915 BitCount = 57 ID = 514
  29.896324 1  203             Rx   d 1 5A  Length = 215914 BitCount = 58 ID = 515
  29.896556 1  204             Rx   d 1 50  Length = 215929 BitCount = 58 ID = 516
  29.896784 1  205             Rx   d 1 5A  Length = 211914 BitCount = 57 ID = 517
  29.897012 1  206             Rx   d 1 62  Length = 211915 BitCount = 57 ID = 518
  29.897240 1  207             Rx   d 1 62  Length = 211930 BitCount = 57 ID = 519
  29.897472 1  208             Rx   d 1 62  Length = 215915 BitCount = 58 ID = 520
  29.897704 1  209             Rx   d 1 00  Length = 215914 BitCount = 58 ID = 521
  29.897932 1  20A             Rx   d 1 56  Length = 211914 BitCount = 57 ID = 522
  29.898276 1  20B             Rx   d 4 06 00 00 00  Length = 327914 BitCount = 86 ID = 523
  29.898628 1  20C             Rx   d 4 02 00 00 00  Length = 335915 BitCount = 88 ID = 524
  29.898868 1  20D             Rx   d 1 00  Length = 223914 BitCount = 60 ID = 525
  30.021050 1   Statistic: D 13 R 0 XD 0 XR 0 E 0 O 0 B 0.32%
  30.021050 CAN 1 Status:chip status error active
  31.021073 1   Statistic: D 0 R 0 XD 0 XR 0 E 0 O 0 B 0.00%
  31.021073 CAN 1 Status:chip status error active
  31.395773 1  201             Rx   d 1 55  Length = 211914 BitCount = 57 ID = 513
  31.396001 1  202             Rx   d 1 62  Length = 211915 BitCount = 57 ID = 514
  31.396233 1  203             Rx   d 1 59  Length = 215914 BitCount = 58 ID = 515
  31.396461 1  204             Rx   d 1 4E  Length = 211929 BitCount = 57 ID = 516
  31.396689 1  205             Rx   d 1 59  Length = 211914 BitCount = 57 ID = 517
  31.396917 1  206             Rx   d 1 62  Length = 211915 BitCount = 57 ID = 518
  31.397145 1  207             Rx   d 1 62  Length = 211914 BitCount = 57 ID = 519
  31.397377 1  208             Rx   d 1 62  Length = 215914 BitCount = 58 ID = 520
  31.397609 1  209             Rx   d 1 00  Length = 215914 BitCount = 58 ID = 521
  31.397837 1  20A             Rx   d 1 55  Length = 211914 BitCount = 57 ID = 522
  31.398181 1  20B             Rx   d 4 06 00 00 00  Length = 327914 BitCount = 86 ID = 523
  31.398533 1  20C             Rx   d 4 02 00 00 00  Length = 335915 BitCount = 88 ID = 524
  31.398773 1  20D             Rx   d 1 00  Length = 223914 BitCount = 60 ID = 525
  32.021098 1   Statistic: D 13 R 0 XD 0 XR 0 E 0 O 0 B 0.32%
  32.021098 CAN 1 Status:chip status error active
  32.895680 1  201             Rx   d 1 55  Length = 211914 BitCount = 57 ID = 513
  32.895908 1  202             Rx   d 1 62  Length = 211914 BitCount = 57 ID = 514
  32.896140 1  203             Rx   d 1 59  Length = 215930 BitCount = 58 ID = 515
  32.896367 1  204             Rx   d 1 4E  Length = 211914 BitCount = 57 ID = 516
  32.896595 1  205             Rx   d 1 59  Length = 211914 BitCount = 57 ID = 517
  32.896823 1  206             Rx   d 1 62  Length = 211930 BitCount = 57 ID = 518
  32.897051 1  207             Rx   d 1 62  Length = 211914 BitCount = 57 ID = 519
  32.897283 1  208             Rx   d 1 62  Length = 215914 BitCount = 58 ID = 520
  32.897515 1  209             Rx   d 1 00  Length = 215914 BitCount = 58 ID = 521
  32.897743 1  20A             Rx   d 1 55  Length = 211915 BitCount = 57 ID = 522
  32.898087 1  20B             Rx   d 4 07 00 00 00  Length = 327914 BitCount = 86 ID = 523
  32.898439 1  20C             Rx   d 4 02 00 00 00  Length = 335926 BitCount = 88 ID = 524
  32.898679 1  20D             Rx   d 1 00  Length = 223929 BitCount = 60 ID = 525
  33.021126 1   Statistic: D 13 R 0 XD 0 XR 0 E 0 O 0 B 0.32%
  33.021126 CAN 1 Status:chip status error active
  34.021159 1   Statistic: D 0 R 0 XD 0 XR 0 E 0 O 0 B 0.00%
  34.021159 CAN 1 Status:chip status error active
  34.395598 1  201             Rx   d 1 54  Length = 211930 BitCount = 57 ID = 513
  34.395826 1  202             Rx   d 1 62  Length = 211914 BitCount = 57 ID = 514
  34.396054 1  203             Rx   d 1 58  Length = 211914 BitCount = 57 ID = 515
  34.396286 1  204             Rx   d 1 4C  Length = 215915 BitCount = 58 ID = 516
  34.396514 1  205             Rx   d 1 58  Length = 211930 BitCount = 57 ID = 517
  34.396742 1  206             Rx   d 1 62  Length = 211915 BitCount = 57 ID = 518
  34.396970 1  207             Rx   d 1 62  Length = 211914 BitCount = 57 ID = 519
  34.397202 1  208             Rx   d 1 62  Length = 215929 BitCount = 58 ID = 520
  34.397434 1  209             Rx   d 1 00  Length = 215914 BitCount = 58 ID = 521
  34.397662 1  20A             Rx   d 1 54  Length = 211915 BitCount = 57 ID = 522
  34.398006 1  20B             Rx   d 4 07 00 00 00  Length = 327914 BitCount = 86 ID = 523
  34.398358 1  20C             Rx   d 4 02 00 00 00  Length = 335915 BitCount = 88 ID = 524
  34.398598 1  20D             Rx   d 1 00  Length = 223914 BitCount = 60 ID = 525
  35.021193 1   Statistic: D 13 R 0 XD 0 XR 0 E 0 O 0 B 0.32%
  35.021193 CAN 1 Status:chip status error active
  35.895519 1  201             Rx   d 1 52  Length = 211914 BitCount = 57 ID = 513
  35.895747 1  202             Rx   d 1 61  Length = 211915 BitCount = 57 ID = 514
  35.895979 1  203             Rx   d 1 57  Length = 215914 BitCount = 58 ID = 515
  35.896211 1  204             Rx   d 1 4A  Length = 215915 BitCount = 58 ID = 516
  35.896439 1  205             Rx   d 1 57  Length = 211914 BitCount = 57 ID = 517
  35.896671 1  206             Rx   d 1 61  Length = 215929 BitCount = 58 ID = 518
  35.896903 1  207             Rx   d 1 61  Length = 215914 BitCount = 58 ID = 519
  35.897135 1  208             Rx   d 1 61  Length = 215915 BitCount = 58 ID = 520
  35.897367 1  209             Rx   d 1 00  Length = 215930 BitCount = 58 ID = 521
  35.897595 1  20A             Rx   d 1 52  Length = 211915 BitCount = 57 ID = 522
  35.897939 1  20B             Rx   d 4 08 00 00 00  Length = 327914 BitCount = 86 ID = 523
  35.898291 1  20C             Rx   d 4 02 00 00 00  Length = 335914 BitCount = 88 ID = 524
  35.898531 1  20D             Rx   d 1 00  Length = 223915 BitCount = 60 ID = 525
  36.021227 1   Statistic: D 13 R 0 XD 0 XR 0 E 0 O 0 B 0.32%
  36.021227 CAN 1 Status:chip status error active
  37.021260 1   Statistic: D 0 R 0 XD 0 XR 0 E 0 O 0 B 0.00%
  37.021260 CAN 1 Status:chip status error active
  37.395450 1  201             Rx   d 1 51  Length = 219914 BitCount = 59 ID = 513
  37.395678 1  202             Rx   d 1 61  Length = 211930 BitCount = 57 ID = 514
  37.395906 1  203             Rx   d 1 56  Length = 211914 BitCount = 57 ID = 515
  37.396134 1  204             Rx   d 1 48  Length = 211914 BitCount = 57 ID = 516
  37.396362 1  205             Rx   d 1 56  Length = 211915 BitCount = 57 ID = 517
  37.396594 1  206             Rx   d 1 61  Length = 215914 BitCount = 58 ID = 518
  37.396826 1  207             Rx   d 1 61  Length = 215914 BitCount = 58 ID = 519
  37.397058 1  208             Rx   d 1 61  Length = 215914 BitCount = 58 ID = 520
  37.397290 1  209             Rx   d 1 00  Length = 215915 BitCount = 58 ID = 521
  37.397522 1  20A             Rx   d 1 51  Length = 215930 BitCount = 58 ID = 522
  37.397866 1  20B             Rx   d 4 08 00 00 00  Length = 327915 BitCount = 86 ID = 523
  37.398218 1  20C             Rx   d 4 02 00 00 00  Length = 335914 BitCount = 88 ID = 524
  37.398458 1  20D             Rx   d 1 00  Length = 223914 BitCount = 60 ID = 525
  38.021292 1   Statistic: D 13 R 0 XD 0 XR 0 E 0 O 0 B 0.32%
  38.021292 CAN 1 Status:chip status error active
  38.833315 1  301             Tx   d 8 10 00 00 00 00 00 00 00  Length = 492000 BitCount = 126 ID = 769
  38.833819 1  444             Rx   d 8 10 00 00 00 00 00 00 00  Length = 483910 BitCount = 125 ID = 1092
  38.895364 1  201             Rx   d 1 51  Length = 219915 BitCount = 59 ID = 513
  38.895592 1  202             Rx   d 1 61  Length = 211914 BitCount = 57 ID = 514
  38.895820 1  203             Rx   d 1 56  Length = 211915 BitCount = 57 ID = 515
  38.896048 1  204             Rx   d 1 48  Length = 211914 BitCount = 57 ID = 516
  38.896276 1  205             Rx   d 1 56  Length = 211914 BitCount = 57 ID = 517
  38.896508 1  206             Rx   d 1 61  Length = 215914 BitCount = 58 ID = 518
  38.896740 1  207             Rx   d 1 61  Length = 215915 BitCount = 58 ID = 519
  38.896972 1  208             Rx   d 1 61  Length = 215930 BitCount = 58 ID = 520
  38.897200 1  209             Rx   d 1 13  Length = 211915 BitCount = 57 ID = 521
  38.897432 1  20A             Rx   d 1 51  Length = 215914 BitCount = 58 ID = 522
  38.897780 1  20B             Rx   d 4 09 00 00 00  Length = 331925 BitCount = 87 ID = 523
  38.898132 1  20C             Rx   d 4 02 00 00 00  Length = 335926 BitCount = 88 ID = 524
  38.898364 1  20D             Rx   d 1 10  Length = 215930 BitCount = 58 ID = 525
  39.021323 1   Statistic: D 15 R 0 XD 0 XR 0 E 0 O 0 B 0.42%
  39.021323 CAN 1 Status:chip status error active
  40.021355 1   Statistic: D 0 R 0 XD 0 XR 0 E 0 O 0 B 0.00%
  40.021355 CAN 1 Status:chip status error active
  40.395280 1  201             Rx   d 1 50  Length = 219929 BitCount = 59 ID = 513
  40.395508 1  202             Rx   d 1 61  Length = 211915 BitCount = 57 ID = 514
  40.395736 1  203             Rx   d 1 55  Length = 211914 BitCount = 57 ID = 515
  40.395964 1  204             Rx   d 1 46  Length = 211914 BitCount = 57 ID = 516
  40.396192 1  205             Rx   d 1 55  Length = 211930 BitCount = 57 ID = 517
  40.396424 1  206             Rx   d 1 61  Length = 215914 BitCount = 58 ID = 518
  40.396656 1  207             Rx   d 1 61  Length = 215914 BitCount = 58 ID = 519
  40.396888 1  208             Rx   d 1 61  Length = 215930 BitCount = 58 ID = 520
  40.397116 1  209             Rx   d 1 13  Length = 211914 BitCount = 57 ID = 521
  40.397356 1  20A             Rx   d 1 50  Length = 223914 BitCount = 60 ID = 522
  40.397704 1  20B             Rx   d 4 09 00 00 00  Length = 331926 BitCount = 87 ID = 523
  40.398056 1  20C             Rx   d 4 02 00 00 00  Length = 335914 BitCount = 88 ID = 524
  40.398288 1  20D             Rx   d 1 10  Length = 215914 BitCount = 58 ID = 525
  41.021386 1   Statistic: D 13 R 0 XD 0 XR 0 E 0 O 0 B 0.32%
  41.021386 CAN 1 Status:chip status error active
  41.895189 1  201             Rx   d 1 4E  Length = 211914 BitCount = 57 ID = 513
  41.895417 1  202             Rx   d 1 61  Length = 211930 BitCount = 57 ID = 514
  41.895645 1  203             Rx   d 1 54  Length = 211915 BitCount = 57 ID = 515
  41.895873 1  204             Rx   d 1 44  Length = 211914 BitCount = 57 ID = 516
  41.896109 1  205             Rx   d 1 54  Length = 219914 BitCount = 59 ID = 517
  41.896341 1  206             Rx   d 1 61  Length = 215914 BitCount = 58 ID = 518
  41.896573 1  207             Rx   d 1 61  Length = 215915 BitCount = 58 ID = 519
  41.896805 1  208             Rx   d 1 61  Length = 215914 BitCount = 58 ID = 520
  41.897033 1  209             Rx   d 1 13  Length = 211914 BitCount = 57 ID = 521
  41.897265 1  20A             Rx   d 1 4E  Length = 215930 BitCount = 58 ID = 522
  41.897613 1  20B             Rx   d 4 0A 00 00 00  Length = 331914 BitCount = 87 ID = 523
  41.897965 1  20C             Rx   d 4 02 00 00 00  Length = 335914 BitCount = 88 ID = 524
  41.898197 1  20D             Rx   d 1 10  Length = 215914 BitCount = 58 ID = 525
  42.021418 1   Statistic: D 13 R 0 XD 0 XR 0 E 0 O 0 B 0.32%
  42.021418 CAN 1 Status:chip status error active
  43.021450 1   Statistic: D 0 R 0 XD 0 XR 0 E 0 O 0 B 0.00%
  43.021450 CAN 1 Status:chip status error active
  43.395123 1  201             Rx   d 1 4D  Length = 223914 BitCount = 60 ID = 513
  43.395351 1  202             Rx   d 1 61  Length = 211914 BitCount = 57 ID = 514
  43.395583 1  203             Rx   d 1 53  Length = 215915 BitCount = 58 ID = 515
  43.395815 1  204             Rx   d 1 42  Length = 215914 BitCount = 58 ID = 516
  43.396047 1  205             Rx   d 1 53  Length = 215914 BitCount = 58 ID = 517
  43.396279 1  206             Rx   d 1 61  Length = 215914 BitCount = 58 ID = 518
  43.396511 1  207             Rx   d 1 61  Length = 215914 BitCount = 58 ID = 519
  43.396743 1  208             Rx   d 1 61  Length = 215914 BitCount = 58 ID = 520
  43.396971 1  209             Rx   d 1 13  Length = 211930 BitCount = 57 ID = 521
  43.397203 1  20A             Rx   d 1 4D  Length = 215914 BitCount = 58 ID = 522
  43.397551 1  20B             Rx   d 4 0A 00 00 00  Length = 331914 BitCount = 87 ID = 523
  43.397903 1  20C             Rx   d 4 02 00 00 00  Length = 335914 BitCount = 88 ID = 524
  43.398135 1  20D             Rx   d 1 10  Length = 215914 BitCount = 58 ID = 525
  44.021482 1   Statistic: D 13 R 0 XD 0 XR 0 E 0 O 0 B 0.32%
  44.021482 CAN 1 Status:chip status error active
  44.895036 1  201             Rx   d 1 4D  Length = 223930 BitCount = 60 ID = 513
  44.895264 1  202             Rx   d 1 61  Length = 211914 BitCount = 57 ID = 514
  44.895496 1  203             Rx   d 1 53  Length = 215914 BitCount = 58 ID = 515
  44.895728 1  204             Rx   d 1 42  Length = 215915 BitCount = 58 ID = 516
  44.895960 1  205             Rx   d 1 53  Length = 215930 BitCount = 58 ID = 517
  44.896192 1  206             Rx   d 1 61  Length = 215915 BitCount = 58 ID = 518
  44.896424 1  207             Rx   d 1 61  Length = 215914 BitCount = 58 ID = 519
  44.896656 1  208             Rx   d 1 61  Length = 215929 BitCount = 58 ID = 520
  44.896884 1  209             Rx   d 1 13  Length = 211914 BitCount = 57 ID = 521
  44.897116 1  20A             Rx   d 1 4D  Length = 215915 BitCount = 58 ID = 522
  44.897460 1  20B             Rx   d 4 0B 00 00 00  Length = 327926 BitCount = 86 ID = 523
  44.897812 1  20C             Rx   d 4 02 00 00 00  Length = 335915 BitCount = 88 ID = 524
  44.898044 1  20D             Rx   d 1 10  Length = 215914 BitCount = 58 ID = 525
  45.021513 1   Statistic: D 13 R 0 XD 0 XR 0 E 0 O 0 B 0.32%
  45.021513 CAN 1 Status:chip status error active
  46.021545 1   Statistic: D 0 R 0 XD 0 XR 0 E 0 O 0 B 0.00%
  46.021545 CAN 1 Status:chip status error active
  46.394942 1  201             Rx   d 1 4C  Length = 211914 BitCount = 57 ID = 513
  46.395178 1  202             Rx   d 1 60  Length = 219914 BitCount = 59 ID = 514
  46.395410 1  203             Rx   d 1 52  Length = 215914 BitCount = 58 ID = 515
  46.395642 1  204             Rx   d 1 40  Length = 215914 BitCount = 58 ID = 516
  46.395870 1  205             Rx   d 1 52  Length = 211915 BitCount = 57 ID = 517
  46.396102 1  206             Rx   d 1 60  Length = 215914 BitCount = 58 ID = 518
  46.396338 1  207             Rx   d 1 60  Length = 219914 BitCount = 59 ID = 519
  46.396570 1  208             Rx   d 1 60  Length = 215930 BitCount = 58 ID = 520
  46.396798 1  209             Rx   d 1 13  Length = 211914 BitCount = 57 ID = 521
  46.397030 1  20A             Rx   d 1 4C  Length = 215914 BitCount = 58 ID = 522
  46.397374 1  20B             Rx   d 4 0B 00 00 00  Length = 327926 BitCount = 86 ID = 523
  46.397726 1  20C             Rx   d 4 02 00 00 00  Length = 335926 BitCount = 88 ID = 524
  46.397958 1  20D             Rx   d 1 10  Length = 215930 BitCount = 58 ID = 525
  47.021577 1   Statistic: D 13 R 0 XD 0 XR 0 E 0 O 0 B 0.32%
  47.021577 CAN 1 Status:chip status error active
  47.894860 1  201             Rx   d 1 4A  Length = 211914 BitCount = 57 ID = 513
  47.895096 1  202             Rx   d 1 60  Length = 219914 BitCount = 59 ID = 514
  47.895324 1  203             Rx   d 1 51  Length = 211915 BitCount = 57 ID = 515
  47.895556 1  204             Rx   d 1 3E  Length = 215914 BitCount = 58 ID = 516
  47.895784 1  205             Rx   d 1 51  Length = 211914 BitCount = 57 ID = 517
  47.896016 1  206             Rx   d 1 60  Length = 215930 BitCount = 58 ID = 518
  47.896252 1  207             Rx   d 1 60  Length = 219914 BitCount = 59 ID = 519
  47.896484 1  208             Rx   d 1 60  Length = 215914 BitCount = 58 ID = 520
  47.896712 1  209             Rx   d 1 13  Length = 211930 BitCount = 57 ID = 521
  47.896944 1  20A             Rx   d 1 4A  Length = 215914 BitCount = 58 ID = 522
  47.897288 1  20B             Rx   d 4 0C 00 00 00  Length = 327914 BitCount = 86 ID = 523
  47.897640 1  20C             Rx   d 4 02 00 00 00  Length = 335914 BitCount = 88 ID = 524
  47.897872 1  20D             Rx   d 1 10  Length = 215914 BitCount = 58 ID = 525
  48.021609 1   Statistic: D 13 R 0 XD 0 XR 0 E 0 O 0 B 0.32%
  48.021609 CAN 1 Status:chip status error active
  49.021642 1   Statistic: D 0 R 0 XD 0 XR 0 E 0 O 0 B 0.00%
  49.021642 CAN 1 Status:chip status error active
  49.394786 1  201             Rx   d 1 49  Length = 215915 BitCount = 58 ID = 513
  49.395022 1  202             Rx   d 1 60  Length = 219914 BitCount = 59 ID = 514
  49.395250 1  203             Rx   d 1 50  Length = 211914 BitCount = 57 ID = 515
  49.395478 1  204             Rx   d 1 3C  Length = 211930 BitCount = 57 ID = 516
  49.395710 1  205             Rx   d 1 50  Length = 215914 BitCount = 58 ID = 517
  49.395942 1  206             Rx   d 1 60  Length = 215914 BitCount = 58 ID = 518
  49.396178 1  207             Rx   d 1 60  Length = 219930 BitCount = 59 ID = 519
  49.396410 1  208             Rx   d 1 60  Length = 215914 BitCount = 58 ID = 520
  49.396638 1  209             Rx   d 1 13  Length = 211914 BitCount = 57 ID = 521
  49.396870 1  20A             Rx   d 1 49  Length = 215914 BitCount = 58 ID = 522
  49.397214 1  20B             Rx   d 4 0C 00 00 00  Length = 327914 BitCount = 86 ID = 523
  49.397566 1  20C             Rx   d 4 02 00 00 00  Length = 335914 BitCount = 88 ID = 524
  49.397798 1  20D             Rx   d 1 10  Length = 215914 BitCount = 58 ID = 525
  50.021674 1   Statistic: D 13 R 0 XD 0 XR 0 E 0 O 0 B 0.32%
  50.021674 CAN 1 Status:chip status error active
  50.894700 1  201             Rx   d 1 49  Length = 215914 BitCount = 58 ID = 513
  50.894936 1  202             Rx   d 1 60  Length = 219914 BitCount = 59 ID = 514
  50.895164 1  203             Rx   d 1 50  Length = 211915 BitCount = 57 ID = 515
  50.895392 1  204             Rx   d 1 3C  Length = 211930 BitCount = 57 ID = 516
  50.895624 1  205             Rx   d 1 50  Length = 215915 BitCount = 58 ID = 517
  50.895856 1  206             Rx   d 1 60  Length = 215914 BitCount = 58 ID = 518
  50.896092 1  207             Rx   d 1 60  Length = 219929 BitCount = 59 ID = 519
  50.896324 1  208             Rx   d 1 60  Length = 215914 BitCount = 58 ID = 520
  50.896552 1  209             Rx   d 1 13  Length = 211915 BitCount = 57 ID = 521
  50.896784 1  20A             Rx   d 1 49  Length = 215914 BitCount = 58 ID = 522
  50.897124 1  20B             Rx   d 4 0D 00 00 00  Length = 323914 BitCount = 85 ID = 523
  50.897476 1  20C             Rx   d 4 02 00 00 00  Length = 335914 BitCount = 88 ID = 524
  50.897708 1  20D             Rx   d 1 10  Length = 215914 BitCount = 58 ID = 525
  51.021705 1   Statistic: D 13 R 0 XD 0 XR 0 E 0 O 0 B 0.32%
  51.021705 CAN 1 Status:chip status error active
  52.021736 1   Statistic: D 0 R 0 XD 0 XR 0 E 0 O 0 B 0.00%
  52.021736 CAN 1 Status:chip status error active
  52.394613 1  201             Rx   d 1 48  Length = 211915 BitCount = 57 ID = 513
  52.394849 1  202             Rx   d 1 60  Length = 219914 BitCount = 59 ID = 514
  52.395085 1  203             Rx   d 1 4F  Length = 219914 BitCount = 59 ID = 515
  52.395313 1  204             Rx   d 1 3A  Length = 211930 BitCount = 57 ID = 516
  52.395541 1  205             Rx   d 1 4F  Length = 211914 BitCount = 57 ID = 517
  52.395773 1  206             Rx   d 1 60  Length = 215914 BitCount = 58 ID = 518
  52.396009 1  207             Rx   d 1 60  Length = 219915 BitCount = 59 ID = 519
  52.396241 1  208             Rx   d 1 60  Length = 215914 BitCount = 58 ID = 520
  52.396469 1  209             Rx   d 1 13  Length = 211914 BitCount = 57 ID = 521
  52.396697 1  20A             Rx   d 1 48  Length = 211914 BitCount = 57 ID = 522
  52.397037 1  20B             Rx   d 4 0D 00 00 00  Length = 323915 BitCount = 85 ID = 523
  52.397389 1  20C             Rx   d 4 02 00 00 00  Length = 335914 BitCount = 88 ID = 524
  52.397621 1  20D             Rx   d 1 10  Length = 215914 BitCount = 58 ID = 525
  53.021768 1   Statistic: D 13 R 0 XD 0 XR 0 E 0 O 0 B 0.32%
  53.021768 CAN 1 Status:chip status error active
  53.894534 1  201             Rx   d 1 46  Length = 215914 BitCount = 58 ID = 513
  53.894770 1  202             Rx   d 1 60  Length = 219914 BitCount = 59 ID = 514
  53.895002 1  203             Rx   d 1 4E  Length = 215930 BitCount = 58 ID = 515
  53.895234 1  204             Rx   d 1 38  Length = 215914 BitCount = 58 ID = 516
  53.895462 1  205             Rx   d 1 4E  Length = 211914 BitCount = 57 ID = 517
  53.895694 1  206             Rx   d 1 60  Length = 215930 BitCount = 58 ID = 518
  53.895930 1  207             Rx   d 1 60  Length = 219914 BitCount = 59 ID = 519
  53.896162 1  208             Rx   d 1 60  Length = 215914 BitCount = 58 ID = 520
  53.896390 1  209             Rx   d 1 13  Length = 211930 BitCount = 57 ID = 521
  53.896626 1  20A             Rx   d 1 46  Length = 219915 BitCount = 59 ID = 522
  53.896978 1  20B             Rx   d 4 0E 00 00 00  Length = 335914 BitCount = 88 ID = 523
  53.897330 1  20C             Rx   d 4 02 00 00 00  Length = 335914 BitCount = 88 ID = 524
  53.897562 1  20D             Rx   d 1 10  Length = 215914 BitCount = 58 ID = 525
  54.021800 1   Statistic: D 13 R 0 XD 0 XR 0 E 0 O 0 B 0.32%
  54.021800 CAN 1 Status:chip status error active
  55.021832 1   Statistic: D 0 R 0 XD 0 XR 0 E 0 O 0 B 0.00%
  55.021832 CAN 1 Status:chip status error active
  55.394452 1  201             Rx   d 1 45  Length = 211930 BitCount = 57 ID = 513
  55.394684 1  202             Rx   d 1 5F  Length = 215930 BitCount = 58 ID = 514
  55.394912 1  203             Rx   d 1 4D  Length = 211914 BitCount = 57 ID = 515
  55.395144 1  204             Rx   d 1 36  Length = 215914 BitCount = 58 ID = 516
  55.395376 1  205             Rx   d 1 4D  Length = 215930 BitCount = 58 ID = 517
  55.395608 1  206             Rx   d 1 5F  Length = 215914 BitCount = 58 ID = 518
  55.395840 1  207             Rx   d 1 5F  Length = 215914 BitCount = 58 ID = 519
  55.396076 1  208             Rx   d 1 5F  Length = 219930 BitCount = 59 ID = 520
  55.396304 1  209             Rx   d 1 13  Length = 211914 BitCount = 57 ID = 521
  55.396532 1  20A             Rx   d 1 45  Length = 211914 BitCount = 57 ID = 522
  55.396884 1  20B             Rx   d 4 0E 00 00 00  Length = 335914 BitCount = 88 ID = 523
  55.397236 1  20C             Rx   d 4 02 00 00 00  Length = 335914 BitCount = 88 ID = 524
  55.397468 1  20D             Rx   d 1 10  Length = 215915 BitCount = 58 ID = 525
  56.021864 1   Statistic: D 13 R 0 XD 0 XR 0 E 0 O 0 B 0.32%
  56.021864 CAN 1 Status:chip status error active
  56.894365 1  201             Rx   d 1 45  Length = 211915 BitCount = 57 ID = 513
  56.894597 1  202             Rx   d 1 5F  Length = 215914 BitCount = 58 ID = 514
  56.894825 1  203             Rx   d 1 4D  Length = 211914 BitCount = 57 ID = 515
  56.895057 1  204             Rx   d 1 36  Length = 215914 BitCount = 58 ID = 516
  56.895289 1  205             Rx   d 1 4D  Length = 215914 BitCount = 58 ID = 517
  56.895521 1  206             Rx   d 1 5F  Length = 215914 BitCount = 58 ID = 518
  56.895753 1  207             Rx   d 1 5F  Length = 215915 BitCount = 58 ID = 519
  56.895989 1  208             Rx   d 1 5F  Length = 219914 BitCount = 59 ID = 520
  56.896217 1  209             Rx   d 1 13  Length = 211914 BitCount = 57 ID = 521
  56.896445 1  20A             Rx   d 1 45  Length = 211914 BitCount = 57 ID = 522
  56.896785 1  20B             Rx   d 4 0F 00 00 00  Length = 323915 BitCount = 85 ID = 523
  56.897137 1  20C             Rx   d 4 02 00 00 00  Length = 335914 BitCount = 88 ID = 524
  56.897369 1  20D             Rx   d 1 10  Length = 215914 BitCount = 58 ID = 525
  57.021895 1   Statistic: D 13 R 0 XD 0 XR 0 E 0 O 0 B 0.32%
  57.021895 CAN 1 Status:chip status error active
  58.021928 1   Statistic: D 0 R 0 XD 0 XR 0 E 0 O 0 B 0.00%
  58.021928 CAN 1 Status:chip status error active
  58.394283 1  201             Rx   d 1 44  Length = 211930 BitCount = 57 ID = 513
  58.394515 1  202             Rx   d 1 5F  Length = 215930 BitCount = 58 ID = 514
  58.394743 1  203             Rx   d 1 4C  Length = 211915 BitCount = 57 ID = 515
  58.394971 1  204             Rx   d 1 34  Length = 211914 BitCount = 57 ID = 516
  58.395199 1  205             Rx   d 1 4C  Length = 211914 BitCount = 57 ID = 517
  58.395431 1  206             Rx   d 1 5F  Length = 215914 BitCount = 58 ID = 518
  58.395663 1  207             Rx   d 1 5F  Length = 215915 BitCount = 58 ID = 519
  58.395899 1  208             Rx   d 1 5F  Length = 219914 BitCount = 59 ID = 520
  58.396127 1  209             Rx   d 1 13  Length = 211914 BitCount = 57 ID = 521
  58.396355 1  20A             Rx   d 1 44  Length = 211914 BitCount = 57 ID = 522
  58.396695 1  20B             Rx   d 4 0F 00 00 00  Length = 323914 BitCount = 85 ID = 523
  58.397047 1  20C             Rx   d 4 02 00 00 00  Length = 335914 BitCount = 88 ID = 524
  58.397279 1  20D             Rx   d 1 10  Length = 215914 BitCount = 58 ID = 525
  59.021960 1   Statistic: D 13 R 0 XD 0 XR 0 E 0 O 0 B 0.32%
  59.021960 CAN 1 Status:chip status error active
  59.894204 1  201             Rx   d 1 42  Length = 215930 BitCount = 58 ID = 513
  59.894436 1  202             Rx   d 1 5F  Length = 215914 BitCount = 58 ID = 514
  59.894664 1  203             Rx   d 1 4B  Length = 211915 BitCount = 57 ID = 515
  59.894896 1  204             Rx   d 1 32  Length = 215914 BitCount = 58 ID = 516
  59.895124 1  205             Rx   d 1 4B  Length = 211929 BitCount = 57 ID = 517
  59.895356 1  206             Rx   d 1 5F  Length = 215914 BitCount = 58 ID = 518
  59.895588 1  207             Rx   d 1 5F  Length = 215915 BitCount = 58 ID = 519
  59.895824 1  208             Rx   d 1 5F  Length = 219930 BitCount = 59 ID = 520
  59.896052 1  209             Rx   d 1 13  Length = 211915 BitCount = 57 ID = 521
  59.896280 1  20A             Rx   d 1 42  Length = 211914 BitCount = 57 ID = 522
  59.896628 1  20B             Rx   d 4 10 00 00 00  Length = 331914 BitCount = 87 ID = 523
  59.896980 1  20C             Rx   d 4 02 00 00 00  Length = 335914 BitCount = 88 ID = 524
  59.897212 1  20D             Rx   d 1 10  Length = 215914 BitCount = 58 ID = 525
  60.021991 1   Statistic: D 13 R 0 XD 0 XR 0 E 0 O 0 B 0.32%
  60.021991 CAN 1 Status:chip status error active
  61.022023 1   Statistic: D 0 R 0 XD 0 XR 0 E 0 O 0 B 0.00%
  61.022023 CAN 1 Status:chip status error active
  61.394125 1  201             Rx   d 1 41  Length = 215914 BitCount = 58 ID = 513
  61.394357 1  202             Rx   d 1 5F  Length = 215930 BitCount = 58 ID = 514
  61.394585 1  203             Rx   d 1 4A  Length = 211915 BitCount = 57 ID = 515
  61.394817 1  204             Rx   d 1 30  Length = 215914 BitCount = 58 ID = 516
  61.395049 1  205             Rx   d 1 4A  Length = 215914 BitCount = 58 ID = 517
  61.395281 1  206             Rx   d 1 5F  Length = 215914 BitCount = 58 ID = 518
  61.395513 1  207             Rx   d 1 5F  Length = 215930 BitCount = 58 ID = 519
  61.395749 1  208             Rx   d 1 5F  Length = 219914 BitCount = 59 ID = 520
  61.395977 1  209             Rx   d 1 13  Length = 211914 BitCount = 57 ID = 521
  61.396213 1  20A             Rx   d 1 41  Length = 219930 BitCount = 59 ID = 522
  61.396561 1  20B             Rx   d 4 10 00 00 00  Length = 331914 BitCount = 87 ID = 523
  61.396913 1  20C             Rx   d 4 02 00 00 00  Length = 335914 BitCount = 88 ID = 524
  61.397145 1  20D             Rx   d 1 10  Length = 215914 BitCount = 58 ID = 525
  62.022054 1   Statistic: D 13 R 0 XD 0 XR 0 E 0 O 0 B 0.32%
  62.022054 CAN 1 Status:chip status error active
  62.894039 1  201             Rx   d 1 41  Length = 215914 BitCount = 58 ID = 513
  62.894271 1  202             Rx   d 1 5F  Length = 215914 BitCount = 58 ID = 514
  62.894499 1  203             Rx   d 1 4A  Length = 211929 BitCount = 57 ID = 515
  62.894731 1  204             Rx   d 1 30  Length = 215914 BitCount = 58 ID = 516
  62.894963 1  205             Rx   d 1 4A  Length = 215915 BitCount = 58 ID = 517
  62.895195 1  206             Rx   d 1 5F  Length = 215930 BitCount = 58 ID = 518
  62.895427 1  207             Rx   d 1 5F  Length = 215915 BitCount = 58 ID = 519
  62.895663 1  208             Rx   d 1 5F  Length = 219914 BitCount = 59 ID = 520
  62.895891 1  209             Rx   d 1 13  Length = 211929 BitCount = 57 ID = 521
  62.896127 1  20A             Rx   d 1 41  Length = 219914 BitCount = 59 ID = 522
  62.896467 1  20B             Rx   d 4 11 00 00 00  Length = 323915 BitCount = 85 ID = 523
  62.896819 1  20C             Rx   d 4 02 00 00 00  Length = 335926 BitCount = 88 ID = 524
  62.897051 1  20D             Rx   d 1 10  Length = 215930 BitCount = 58 ID = 525
  63.022086 1   Statistic: D 13 R 0 XD 0 XR 0 E 0 O 0 B 0.32%
  63.022086 CAN 1 Status:chip status error active
  64.022118 1   Statistic: D 0 R 0 XD 0 XR 0 E 0 O 0 B 0.00%
  64.022118 CAN 1 Status:chip status error active
  64.393957 1  201             Rx   d 1 40  Length = 215914 BitCount = 58 ID = 513
  64.394189 1  202             Rx   d 1 5F  Length = 215914 BitCount = 58 ID = 514
  64.394417 1  203             Rx   d 1 49  Length = 211914 BitCount = 57 ID = 515
  64.394645 1  204             Rx   d 1 2E  Length = 211930 BitCount = 57 ID = 516
  64.394877 1  205             Rx   d 1 49  Length = 215915 BitCount = 58 ID = 517
  64.395109 1  206             Rx   d 1 5F  Length = 215914 BitCount = 58 ID = 518
  64.395341 1  207             Rx   d 1 5F  Length = 215929 BitCount = 58 ID = 519
  64.395577 1  208             Rx   d 1 5F  Length = 219914 BitCount = 59 ID = 520
  64.395805 1  209             Rx   d 1 13  Length = 211915 BitCount = 57 ID = 521
  64.396037 1  20A             Rx   d 1 40  Length = 215930 BitCount = 58 ID = 522
  64.396377 1  20B             Rx   d 4 11 00 00 00  Length = 323915 BitCount = 85 ID = 523
  64.396729 1  20C             Rx   d 4 02 00 00 00  Length = 335914 BitCount = 88 ID = 524
  64.396961 1  20D             Rx   d 1 10  Length = 215914 BitCount = 58 ID = 525
  65.022150 1   Statistic: D 13 R 0 XD 0 XR 0 E 0 O 0 B 0.32%
  65.022150 CAN 1 Status:chip status error active
  65.893879 1  201             Rx   d 1 3E  Length = 219914 BitCount = 59 ID = 513
  65.894111 1  202             Rx   d 1 5E  Length = 215914 BitCount = 58 ID = 514
  65.894347 1  203             Rx   d 1 48  Length = 219930 BitCount = 59 ID = 515
  65.894579 1  204             Rx   d 1 2C  Length = 215914 BitCount = 58 ID = 516
  65.894811 1  205             Rx   d 1 48  Length = 215914 BitCount = 58 ID = 517
  65.895039 1  206             Rx   d 1 5E  Length = 211930 BitCount = 57 ID = 518
  65.895271 1  207             Rx   d 1 5E  Length = 215914 BitCount = 58 ID = 519
  65.895499 1  208             Rx   d 1 5E  Length = 211914 BitCount = 57 ID = 520
  65.895727 1  209             Rx   d 1 13  Length = 211930 BitCount = 57 ID = 521
  65.895959 1  20A             Rx   d 1 3E  Length = 215914 BitCount = 58 ID = 522
  65.896303 1  20B             Rx   d 4 12 00 00 00  Length = 327914 BitCount = 86 ID = 523
  65.896655 1  20C             Rx   d 4 02 00 00 00  Length = 335914 BitCount = 88 ID = 524
  65.896887 1  20D             Rx   d 1 10  Length = 215914 BitCount = 58 ID = 525
  66.022182 1   Statistic: D 13 R 0 XD 0 XR 0 E 0 O 0 B 0.32%
  66.022182 CAN 1 Status:chip status error active
  67.022214 1   Statistic: D 0 R 0 XD 0 XR 0 E 0 O 0 B 0.00%
  67.022214 CAN 1 Status:chip status error active
  67.393796 1  201             Rx   d 1 3D  Length = 215915 BitCount = 58 ID = 513
  67.394028 1  202             Rx   d 1 5E  Length = 215914 BitCount = 58 ID = 514
  67.394260 1  203             Rx   d 1 47  Length = 215930 BitCount = 58 ID = 515
  67.394488 1  204             Rx   d 1 2A  Length = 211914 BitCount = 57 ID = 516
  67.394720 1  205             Rx   d 1 47  Length = 215914 BitCount = 58 ID = 517
  67.394948 1  206             Rx   d 1 5E  Length = 211914 BitCount = 57 ID = 518
  67.395180 1  207             Rx   d 1 5E  Length = 215915 BitCount = 58 ID = 519
  67.395408 1  208             Rx   d 1 5E  Length = 211914 BitCount = 57 ID = 520
  67.395636 1  209             Rx   d 1 13  Length = 211915 BitCount = 57 ID = 521
  67.395872 1  20A             Rx   d 1 3D  Length = 219914 BitCount = 59 ID = 522
  67.396216 1  20B             Rx   d 4 12 00 00 00  Length = 327914 BitCount = 86 ID = 523
  67.396568 1  20C             Rx   d 4 02 00 00 00  Length = 335926 BitCount = 88 ID = 524
  67.396800 1  20D             Rx   d 1 10  Length = 215930 BitCount = 58 ID = 525
  68.022245 1   Statistic: D 13 R 0 XD 0 XR 0 E 0 O 0 B 0.32%
  68.022245 CAN 1 Status:chip status error active
  68.893709 1  201             Rx   d 1 3D  Length = 215930 BitCount = 58 ID = 513
  68.893941 1  202             Rx   d 1 5E  Length = 215930 BitCount = 58 ID = 514
  68.894173 1  203             Rx   d 1 47  Length = 215915 BitCount = 58 ID = 515
  68.894401 1  204             Rx   d 1 2A  Length = 211914 BitCount = 57 ID = 516
  68.894633 1  205             Rx   d 1 47  Length = 215929 BitCount = 58 ID = 517
  68.894861 1  206             Rx   d 1 5E  Length = 211914 BitCount = 57 ID = 518
  68.895093 1  207             Rx   d 1 5E  Length = 215915 BitCount = 58 ID = 519
  68.895321 1  208             Rx   d 1 5E  Length = 211914 BitCount = 57 ID = 520
  68.895549 1  209             Rx   d 1 13  Length = 211915 BitCount = 57 ID = 521
  68.895785 1  20A             Rx   d 1 3D  Length = 219914 BitCount = 59 ID = 522
  68.896125 1  20B             Rx   d 4 13 00 00 00  Length = 323914 BitCount = 85 ID = 523
  68.896477 1  20C             Rx   d 4 02 00 00 00  Length = 335914 BitCount = 88 ID = 524
  68.896709 1  20D             Rx   d 1 10  Length = 215914 BitCount = 58 ID = 525
  69.022277 1   Statistic: D 13 R 0 XD 0 XR 0 E 0 O 0 B 0.32%
  69.022277 CAN 1 Status:chip status error active
  69.956147 1  301             Tx   d 8 50 00 00 00 00 00 00 00  Length = 488244 BitCount = 125 ID = 769
  69.956647 1  444             Rx   d 8 50 00 00 00 00 00 00 00  Length = 479911 BitCount = 124 ID = 1092
  70.022309 1   Statistic: D 2 R 0 XD 0 XR 0 E 0 O 0 B 0.09%
  70.022309 CAN 1 Status:chip status error active
  70.393623 1  201             Rx   d 1 3C  Length = 211915 BitCount = 57 ID = 513
  70.393855 1  202             Rx   d 1 5E  Length = 215914 BitCount = 58 ID = 514
  70.394083 1  203             Rx   d 1 46  Length = 211914 BitCount = 57 ID = 515
  70.394315 1  204             Rx   d 1 28  Length = 215914 BitCount = 58 ID = 516
  70.394543 1  205             Rx   d 1 46  Length = 211915 BitCount = 57 ID = 517
  70.394771 1  206             Rx   d 1 5E  Length = 211930 BitCount = 57 ID = 518
  70.395003 1  207             Rx   d 1 5E  Length = 215915 BitCount = 58 ID = 519
  70.395231 1  208             Rx   d 1 5E  Length = 211914 BitCount = 57 ID = 520
  70.395467 1  209             Rx   d 1 60  Length = 219929 BitCount = 59 ID = 521
  70.395695 1  20A             Rx   d 1 3C  Length = 211914 BitCount = 57 ID = 522
  70.396035 1  20B             Rx   d 4 13 00 00 00  Length = 323915 BitCount = 85 ID = 523
  70.396387 1  20C             Rx   d 4 02 00 00 00  Length = 335914 BitCount = 88 ID = 524
  70.396615 1  20D             Rx   d 1 50  Length = 211914 BitCount = 57 ID = 525
  71.022341 1   Statistic: D 13 R 0 XD 0 XR 0 E 0 O 0 B 0.32%
  71.022341 CAN 1 Status:chip status error active
  71.893544 1  201             Rx   d 1 3A  Length = 215914 BitCount = 58 ID = 513
  71.893776 1  202             Rx   d 1 5E  Length = 215930 BitCount = 58 ID = 514
  71.894008 1  203             Rx   d 1 45  Length = 215914 BitCount = 58 ID = 515
  71.894236 1  204             Rx   d 1 26  Length = 211914 BitCount = 57 ID = 516
  71.894468 1  205             Rx   d 1 45  Length = 215930 BitCount = 58 ID = 517
  71.894696 1  206             Rx   d 1 5E  Length = 211915 BitCount = 57 ID = 518
  71.894928 1  207             Rx   d 1 5E  Length = 215914 BitCount = 58 ID = 519
  71.895156 1  208             Rx   d 1 5E  Length = 211915 BitCount = 57 ID = 520
  71.895392 1  209             Rx   d 1 60  Length = 219914 BitCount = 59 ID = 521
  71.895620 1  20A             Rx   d 1 3A  Length = 211929 BitCount = 57 ID = 522
  71.895964 1  20B             Rx   d 4 14 00 00 00  Length = 327914 BitCount = 86 ID = 523
  71.896320 1  20C             Rx   d 4 00 00 00 00  Length = 339914 BitCount = 89 ID = 524
  71.896548 1  20D             Rx   d 1 50  Length = 211915 BitCount = 57 ID = 525
  72.022372 1   Statistic: D 13 R 0 XD 0 XR 0 E 0 O 0 B 0.32%
  72.022372 CAN 1 Status:chip status error active
  73.022404 1   Statistic: D 0 R 0 XD 0 XR 0 E 0 O 0 B 0.00%
  73.022404 CAN 1 Status:chip status error active
  73.393466 1  201             Rx   d 1 39  Length = 215914 BitCount = 58 ID = 513
  73.393698 1  202             Rx   d 1 5E  Length = 215914 BitCount = 58 ID = 514
  73.393926 1  203             Rx   d 1 44  Length = 211930 BitCount = 57 ID = 515
  73.394158 1  204             Rx   d 1 24  Length = 215914 BitCount = 58 ID = 516
  73.394386 1  205             Rx   d 1 44  Length = 211914 BitCount = 57 ID = 517
  73.394614 1  206             Rx   d 1 5E  Length = 211915 BitCount = 57 ID = 518
  73.394846 1  207             Rx   d 1 5E  Length = 215914 BitCount = 58 ID = 519
  73.395074 1  208             Rx   d 1 5E  Length = 211929 BitCount = 57 ID = 520
  73.395310 1  209             Rx   d 1 60  Length = 219914 BitCount = 59 ID = 521
  73.395538 1  20A             Rx   d 1 39  Length = 211915 BitCount = 57 ID = 522
  73.395882 1  20B             Rx   d 4 14 00 00 00  Length = 327926 BitCount = 86 ID = 523
  73.396238 1  20C             Rx   d 4 00 00 00 00  Length = 339926 BitCount = 89 ID = 524
  73.396466 1  20D             Rx   d 1 50  Length = 211929 BitCount = 57 ID = 525
  74.022436 1   Statistic: D 13 R 0 XD 0 XR 0 E 0 O 0 B 0.32%
  74.022436 CAN 1 Status:chip status error active
  74.893379 1  201             Rx   d 1 39  Length = 215914 BitCount = 58 ID = 513
  74.893611 1  202             Rx   d 1 5E  Length = 215914 BitCount = 58 ID = 514
  74.893839 1  203             Rx   d 1 44  Length = 211914 BitCount = 57 ID = 515
  74.894071 1  204             Rx   d 1 24  Length = 215914 BitCount = 58 ID = 516
  74.894299 1  205             Rx   d 1 44  Length = 211915 BitCount = 57 ID = 517
  74.894527 1  206             Rx   d 1 5E  Length = 211930 BitCount = 57 ID = 518
  74.894759 1  207             Rx   d 1 5E  Length = 215915 BitCount = 58 ID = 519
  74.894987 1  208             Rx   d 1 5E  Length = 211914 BitCount = 57 ID = 520
  74.895223 1  209             Rx   d 1 60  Length = 219929 BitCount = 59 ID = 521
  74.895451 1  20A             Rx   d 1 39  Length = 211914 BitCount = 57 ID = 522
  74.895795 1  20B             Rx   d 4 15 00 00 00  Length = 327915 BitCount = 86 ID = 523
  74.896151 1  20C             Rx   d 4 00 00 00 00  Length = 339914 BitCount = 89 ID = 524
  74.896379 1  20D             Rx   d 1 50  Length = 211914 BitCount = 57 ID = 525
  75.022468 1   Statistic: D 13 R 0 XD 0 XR 0 E 0 O 0 B 0.32%
  75.022468 CAN 1 Status:chip status error active
  76.022499 1   Statistic: D 0 R 0 XD 0 XR 0 E 0 O 0 B 0.00%
  76.022499 CAN 1 Status:chip status error active
  76.393296 1  201             Rx   d 1 38  Length = 215914 BitCount = 58 ID = 513
  76.393524 1  202             Rx   d 1 5D  Length = 211914 BitCount = 57 ID = 514
  76.393752 1  203             Rx   d 1 43  Length = 211915 BitCount = 57 ID = 515
  76.393980 1  204             Rx   d 1 22  Length = 211914 BitCount = 57 ID = 516
  76.394212 1  205             Rx   d 1 43  Length = 215915 BitCount = 58 ID = 517
  76.394440 1  206             Rx   d 1 5D  Length = 211914 BitCount = 57 ID = 518
  76.394672 1  207             Rx   d 1 5D  Length = 215914 BitCount = 58 ID = 519
  76.394904 1  208             Rx   d 1 5D  Length = 215914 BitCount = 58 ID = 520
  76.395140 1  209             Rx   d 1 60  Length = 219915 BitCount = 59 ID = 521
  76.395368 1  20A             Rx   d 1 38  Length = 211914 BitCount = 57 ID = 522
  76.395712 1  20B             Rx   d 4 15 00 00 00  Length = 327914 BitCount = 86 ID = 523
  76.396068 1  20C             Rx   d 4 00 00 00 00  Length = 339914 BitCount = 89 ID = 524
  76.396296 1  20D             Rx   d 1 50  Length = 211914 BitCount = 57 ID = 525
  77.022531 1   Statistic: D 13 R 0 XD 0 XR 0 E 0 O 0 B 0.32%
  77.022531 CAN 1 Status:chip status error active
  77.893217 1  201             Rx   d 1 36  Length = 219915 BitCount = 59 ID = 513
  77.893445 1  202             Rx   d 1 5D  Length = 211914 BitCount = 57 ID = 514
  77.893677 1  203             Rx   d 1 42  Length = 215914 BitCount = 58 ID = 515
  77.893913 1  204             Rx   d 1 20  Length = 219930 BitCount = 59 ID = 516
  77.894145 1  205             Rx   d 1 42  Length = 215914 BitCount = 58 ID = 517
  77.894373 1  206             Rx   d 1 5D  Length = 211914 BitCount = 57 ID = 518
  77.894605 1  207             Rx   d 1 5D  Length = 215930 BitCount = 58 ID = 519
  77.894837 1  208             Rx   d 1 5D  Length = 215914 BitCount = 58 ID = 520
  77.895073 1  209             Rx   d 1 60  Length = 219914 BitCount = 59 ID = 521
  77.895305 1  20A             Rx   d 1 36  Length = 215914 BitCount = 58 ID = 522
  77.895649 1  20B             Rx   d 4 16 00 00 00  Length = 327915 BitCount = 86 ID = 523
  77.896005 1  20C             Rx   d 4 00 00 00 00  Length = 339914 BitCount = 89 ID = 524
  77.896233 1  20D             Rx   d 1 50  Length = 211914 BitCount = 57 ID = 525
  78.022563 1   Statistic: D 13 R 0 XD 0 XR 0 E 0 O 0 B 0.32%
  78.022563 CAN 1 Status:chip status error active
  79.022597 1   Statistic: D 0 R 0 XD 0 XR 0 E 0 O 0 B 0.00%
  79.022597 CAN 1 Status:chip status error active
  79.393138 1  201             Rx   d 1 35  Length = 211914 BitCount = 57 ID = 513
  79.393366 1  202             Rx   d 1 5D  Length = 211914 BitCount = 57 ID = 514
  79.393598 1  203             Rx   d 1 41  Length = 215915 BitCount = 58 ID = 515
  79.393826 1  204             Rx   d 1 1E  Length = 211930 BitCount = 57 ID = 516
  79.394062 1  205             Rx   d 1 41  Length = 219915 BitCount = 59 ID = 517
  79.394290 1  206             Rx   d 1 5D  Length = 211914 BitCount = 57 ID = 518
  79.394522 1  207             Rx   d 1 5D  Length = 215929 BitCount = 58 ID = 519
  79.394754 1  208             Rx   d 1 5D  Length = 215914 BitCount = 58 ID = 520
  79.394990 1  209             Rx   d 1 60  Length = 219915 BitCount = 59 ID = 521
  79.395218 1  20A             Rx   d 1 35  Length = 211930 BitCount = 57 ID = 522
  79.395562 1  20B             Rx   d 4 16 00 00 00  Length = 327915 BitCount = 86 ID = 523
  79.395918 1  20C             Rx   d 4 00 00 00 00  Length = 339914 BitCount = 89 ID = 524
  79.396146 1  20D             Rx   d 1 50  Length = 211914 BitCount = 57 ID = 525
  80.022639 1   Statistic: D 13 R 0 XD 0 XR 0 E 0 O 0 B 0.32%
  80.022639 CAN 1 Status:chip status error active
  80.893056 1  201             Rx   d 1 35  Length = 211930 BitCount = 57 ID = 513
  80.893284 1  202             Rx   d 1 5D  Length = 211914 BitCount = 57 ID = 514
  80.893516 1  203             Rx   d 1 41  Length = 215914 BitCount = 58 ID = 515
  80.893744 1  204             Rx   d 1 1E  Length = 211915 BitCount = 57 ID = 516
  80.893980 1  205             Rx   d 1 41  Length = 219930 BitCount = 59 ID = 517
  80.894208 1  206             Rx   d 1 5D  Length = 211915 BitCount = 57 ID = 518
  80.894440 1  207             Rx   d 1 5D  Length = 215914 BitCount = 58 ID = 519
  80.894672 1  208             Rx   d 1 5D  Length = 215929 BitCount = 58 ID = 520
  80.894908 1  209             Rx   d 1 60  Length = 219914 BitCount = 59 ID = 521
  80.895136 1  20A             Rx   d 1 35  Length = 211915 BitCount = 57 ID = 522
  80.895480 1  20B             Rx   d 4 17 00 00 00  Length = 327914 BitCount = 86 ID = 523
  80.895836 1  20C             Rx   d 4 00 00 00 00  Length = 339915 BitCount = 89 ID = 524
  80.896064 1  20D             Rx   d 1 50  Length = 211914 BitCount = 57 ID = 525
  81.022669 1   Statistic: D 13 R 0 XD 0 XR 0 E 0 O 0 B 0.32%
  81.022669 CAN 1 Status:chip status error active
  82.022695 1   Statistic: D 0 R 0 XD 0 XR 0 E 0 O 0 B 0.00%
  82.022695 CAN 1 Status:chip status error active
  82.392965 1  201             Rx   d 1 34  Length = 211915 BitCount = 57 ID = 513
  82.393193 1  202             Rx   d 1 5D  Length = 211914 BitCount = 57 ID = 514
  82.393429 1  203             Rx   d 1 40  Length = 219914 BitCount = 59 ID = 515
  82.393661 1  204             Rx   d 1 1C  Length = 215915 BitCount = 58 ID = 516
  82.393897 1  205             Rx   d 1 40  Length = 219914 BitCount = 59 ID = 517
  82.394125 1  206             Rx   d 1 5D  Length = 211914 BitCount = 57 ID = 518
  82.394356 1  207             Rx   d 1 5D  Length = 215914 BitCount = 58 ID = 519
  82.394588 1  208             Rx   d 1 5D  Length = 215914 BitCount = 58 ID = 520
  82.394824 1  209             Rx   d 1 60  Length = 219914 BitCount = 59 ID = 521
  82.395056 1  20A             Rx   d 1 34  Length = 215930 BitCount = 58 ID = 522
  82.395400 1  20B             Rx   d 4 17 00 00 00  Length = 327914 BitCount = 86 ID = 523
  82.395756 1  20C             Rx   d 4 00 00 00 00  Length = 339915 BitCount = 89 ID = 524
  82.395984 1  20D             Rx   d 1 50  Length = 211914 BitCount = 57 ID = 525
  83.022721 1   Statistic: D 13 R 0 XD 0 XR 0 E 0 O 0 B 0.32%
  83.022721 CAN 1 Status:chip status error active
  83.892876 1  201             Rx   d 1 32  Length = 211930 BitCount = 57 ID = 513
  83.893104 1  202             Rx   d 1 5D  Length = 211930 BitCount = 57 ID = 514
  83.893340 1  203             Rx   d 1 3F  Length = 219915 BitCount = 59 ID = 515
  83.893568 1  204             Rx   d 1 1A  Length = 211914 BitCount = 57 ID = 516
  83.893800 1  205             Rx   d 1 3F  Length = 215914 BitCount = 58 ID = 517
  83.894028 1  206             Rx   d 1 5D  Length = 211914 BitCount = 57 ID = 518
  83.894260 1  207             Rx   d 1 5D  Length = 215915 BitCount = 58 ID = 519
  83.894492 1  208             Rx   d 1 5D  Length = 215914 BitCount = 58 ID = 520
  83.894728 1  209             Rx   d 1 60  Length = 219914 BitCount = 59 ID = 521
  83.894956 1  20A             Rx   d 1 32  Length = 211930 BitCount = 57 ID = 522
  83.895304 1  20B             Rx   d 4 18 00 00 00  Length = 331914 BitCount = 87 ID = 523
  83.895660 1  20C             Rx   d 4 00 00 00 00  Length = 339914 BitCount = 89 ID = 524
  83.895888 1  20D             Rx   d 1 50  Length = 211914 BitCount = 57 ID = 525
  84.022750 1   Statistic: D 13 R 0 XD 0 XR 0 E 0 O 0 B 0.32%
  84.022750 CAN 1 Status:chip status error active
  85.022782 1   Statistic: D 0 R 0 XD 0 XR 0 E 0 O 0 B 0.00%
  85.022782 CAN 1 Status:chip status error active
  85.392803 1  201             Rx   d 1 31  Length = 215915 BitCount = 58 ID = 513
  85.393031 1  202             Rx   d 1 5C  Length = 211914 BitCount = 57 ID = 514
  85.393267 1  203             Rx   d 1 3E  Length = 219930 BitCount = 59 ID = 515
  85.393499 1  204             Rx   d 1 18  Length = 215914 BitCount = 58 ID = 516
  85.393735 1  205             Rx   d 1 3E  Length = 219914 BitCount = 59 ID = 517
  85.393967 1  206             Rx   d 1 5C  Length = 215914 BitCount = 58 ID = 518
  85.394195 1  207             Rx   d 1 5C  Length = 211914 BitCount = 57 ID = 519
  85.394423 1  208             Rx   d 1 5C  Length = 211914 BitCount = 57 ID = 520
  85.394659 1  209             Rx   d 1 60  Length = 219915 BitCount = 59 ID = 521
  85.394887 1  20A             Rx   d 1 31  Length = 211914 BitCount = 57 ID = 522
  85.395235 1  20B             Rx   d 4 18 00 00 00  Length = 331925 BitCount = 87 ID = 523
  85.395591 1  20C             Rx   d 4 00 00 00 00  Length = 339926 BitCount = 89 ID = 524
  85.395819 1  20D             Rx   d 1 50  Length = 211930 BitCount = 57 ID = 525
  86.022815 1   Statistic: D 13 R 0 XD 0 XR 0 E 0 O 0 B 0.32%
  86.022815 CAN 1 Status:chip status error active
  86.892719 1  201             Rx   d 1 31  Length = 215914 BitCount = 58 ID = 513
  86.892947 1  202             Rx   d 1 5C  Length = 211914 BitCount = 57 ID = 514
  86.893183 1  203             Rx   d 1 3E  Length = 219930 BitCount = 59 ID = 515
  86.893415 1  204             Rx   d 1 18  Length = 215914 BitCount = 58 ID = 516
  86.893651 1  205             Rx   d 1 3E  Length = 219914 BitCount = 59 ID = 517
  86.893883 1  206             Rx   d 1 5C  Length = 215930 BitCount = 58 ID = 518
  86.894111 1  207             Rx   d 1 5C  Length = 211914 BitCount = 57 ID = 519
  86.894339 1  208             Rx   d 1 5C  Length = 211914 BitCount = 57 ID = 520
  86.894575 1  209             Rx   d 1 60  Length = 219914 BitCount = 59 ID = 521
  86.894803 1  20A             Rx   d 1 31  Length = 211915 BitCount = 57 ID = 522
  86.895143 1  20B             Rx   d 4 19 00 00 00  Length = 323914 BitCount = 85 ID = 523
  86.895499 1  20C             Rx   d 4 00 00 00 00  Length = 339926 BitCount = 89 ID = 524
  86.895727 1  20D             Rx   d 1 50  Length = 211929 BitCount = 57 ID = 525
  87.022849 1   Statistic: D 13 R 0 XD 0 XR 0 E 0 O 0 B 0.32%
  87.022849 CAN 1 Status:chip status error active
  88.022881 1   Statistic: D 0 R 0 XD 0 XR 0 E 0 O 0 B 0.00%
  88.022881 CAN 1 Status:chip status error active
  88.392637 1  201             Rx   d 1 30  Length = 215930 BitCount = 58 ID = 513
  88.392865 1  202             Rx   d 1 5C  Length = 211914 BitCount = 57 ID = 514
  88.393093 1  203             Rx   d 1 3D  Length = 211914 BitCount = 57 ID = 515
  88.393321 1  204             Rx   d 1 16  Length = 211915 BitCount = 57 ID = 516
  88.393549 1  205             Rx   d 1 3D  Length = 211930 BitCount = 57 ID = 517
  88.393781 1  206             Rx   d 1 5C  Length = 215915 BitCount = 58 ID = 518
  88.394009 1  207             Rx   d 1 5C  Length = 211914 BitCount = 57 ID = 519
  88.394237 1  208             Rx   d 1 5C  Length = 211929 BitCount = 57 ID = 520
  88.394473 1  209             Rx   d 1 60  Length = 219914 BitCount = 59 ID = 521
  88.394705 1  20A             Rx   d 1 30  Length = 215915 BitCount = 58 ID = 522
  88.395045 1  20B             Rx   d 4 19 00 00 00  Length = 323914 BitCount = 85 ID = 523
  88.395401 1  20C             Rx   d 4 00 00 00 00  Length = 339915 BitCount = 89 ID = 524
  88.395629 1  20D             Rx   d 1 50  Length = 211914 BitCount = 57 ID = 525
  89.022912 1   Statistic: D 13 R 0 XD 0 XR 0 E 0 O 0 B 0.32%
  89.022912 CAN 1 Status:chip status error active
  89.892549 1  201             Rx   d 1 2E  Length = 211930 BitCount = 57 ID = 513
  89.892777 1  202             Rx   d 1 5C  Length = 211930 BitCount = 57 ID = 514
  89.893005 1  203             Rx   d 1 3C  Length = 211915 BitCount = 57 ID = 515
  89.893237 1  204             Rx   d 1 14  Length = 215914 BitCount = 58 ID = 516
  89.893465 1  205             Rx   d 1 3C  Length = 211914 BitCount = 57 ID = 517
  89.893697 1  206             Rx   d 1 5C  Length = 215914 BitCount = 58 ID = 518
  89.893925 1  207             Rx   d 1 5C  Length = 211915 BitCount = 57 ID = 519
  89.894153 1  208             Rx   d 1 5C  Length = 211914 BitCount = 57 ID = 520
  89.894389 1  209             Rx   d 1 60  Length = 219914 BitCount = 59 ID = 521
  89.894617 1  20A             Rx   d 1 2E  Length = 211930 BitCount = 57 ID = 522
  89.894965 1  20B             Rx   d 4 1A 00 00 00  Length = 331914 BitCount = 87 ID = 523
  89.895321 1  20C             Rx   d 4 00 00 00 00  Length = 339914 BitCount = 89 ID = 524
  89.895549 1  20D             Rx   d 1 50  Length = 211914 BitCount = 57 ID = 525
  90.022943 1   Statistic: D 13 R 0 XD 0 XR 0 E 0 O 0 B 0.32%
  90.022943 CAN 1 Status:chip status error active
  91.022974 1   Statistic: D 0 R 0 XD 0 XR 0 E 0 O 0 B 0.00%
  91.022974 CAN 1 Status:chip status error active
  91.392470 1  201             Rx   d 1 2D  Length = 211914 BitCount = 57 ID = 513
  91.392698 1  202             Rx   d 1 5C  Length = 211930 BitCount = 57 ID = 514
  91.392926 1  203             Rx   d 1 3B  Length = 211915 BitCount = 57 ID = 515
  91.393154 1  204             Rx   d 1 12  Length = 211914 BitCount = 57 ID = 516
  91.393382 1  205             Rx   d 1 3B  Length = 211914 BitCount = 57 ID = 517
  91.393614 1  206             Rx   d 1 5C  Length = 215914 BitCount = 58 ID = 518
  91.393842 1  207             Rx   d 1 5C  Length = 211915 BitCount = 57 ID = 519
  91.394070 1  208             Rx   d 1 5C  Length = 211914 BitCount = 57 ID = 520
  91.394306 1  209             Rx   d 1 60  Length = 219914 BitCount = 59 ID = 521
  91.394534 1  20A             Rx   d 1 2D  Length = 211930 BitCount = 57 ID = 522
  91.394882 1  20B             Rx   d 4 1A 00 00 00  Length = 331914 BitCount = 87 ID = 523
  91.395237 1  20C             Rx   d 4 00 00 00 00  Length = 339914 BitCount = 89 ID = 524
  91.395465 1  20D             Rx   d 1 50  Length = 211914 BitCount = 57 ID = 525
  92.023009 1   Statistic: D 13 R 0 XD 0 XR 0 E 0 O 0 B 0.32%
  92.023009 CAN 1 Status:chip status error active
  92.892398 1  201             Rx   d 1 2D  Length = 211914 BitCount = 57 ID = 513
  92.892626 1  202             Rx   d 1 5C  Length = 211914 BitCount = 57 ID = 514
  92.892854 1  203             Rx   d 1 3B  Length = 211914 BitCount = 57 ID = 515
  92.893082 1  204             Rx   d 1 12  Length = 211914 BitCount = 57 ID = 516
  92.893310 1  205             Rx   d 1 3B  Length = 211915 BitCount = 57 ID = 517
  92.893542 1  206             Rx   d 1 5C  Length = 215930 BitCount = 58 ID = 518
  92.893770 1  207             Rx   d 1 5C  Length = 211915 BitCount = 57 ID = 519
  92.893998 1  208             Rx   d 1 5C  Length = 211914 BitCount = 57 ID = 520
  92.894234 1  209             Rx   d 1 60  Length = 219929 BitCount = 59 ID = 521
  92.894462 1  20A             Rx   d 1 2D  Length = 211914 BitCount = 57 ID = 522
  92.894806 1  20B             Rx   d 4 1B 00 00 00  Length = 327915 BitCount = 86 ID = 523
  92.895162 1  20C             Rx   d 4 00 00 00 00  Length = 339914 BitCount = 89 ID = 524
  92.895390 1  20D             Rx   d 1 50  Length = 211914 BitCount = 57 ID = 525
  93.023053 1   Statistic: D 13 R 0 XD 0 XR 0 E 0 O 0 B 0.32%
  93.023053 CAN 1 Status:chip status error active
  94.023083 1   Statistic: D 0 R 0 XD 0 XR 0 E 0 O 0 B 0.00%
  94.023083 CAN 1 Status:chip status error active
  94.392311 1  201             Rx   d 1 2C  Length = 211914 BitCount = 57 ID = 513
  94.392539 1  202             Rx   d 1 5C  Length = 211914 BitCount = 57 ID = 514
  94.392767 1  203             Rx   d 1 3A  Length = 211914 BitCount = 57 ID = 515
  94.392999 1  204             Rx   d 1 10  Length = 215914 BitCount = 58 ID = 516
  94.393227 1  205             Rx   d 1 3A  Length = 211915 BitCount = 57 ID = 517
  94.393459 1  206             Rx   d 1 5C  Length = 215914 BitCount = 58 ID = 518
  94.393687 1  207             Rx   d 1 5C  Length = 211914 BitCount = 57 ID = 519
  94.393915 1  208             Rx   d 1 5C  Length = 211930 BitCount = 57 ID = 520
  94.394151 1  209             Rx   d 1 60  Length = 219914 BitCount = 59 ID = 521
  94.394379 1  20A             Rx   d 1 2C  Length = 211914 BitCount = 57 ID = 522
  94.394723 1  20B             Rx   d 4 1B 00 00 00  Length = 327926 BitCount = 86 ID = 523
  94.395079 1  20C             Rx   d 4 00 00 00 00  Length = 339914 BitCount = 89 ID = 524
  94.395307 1  20D             Rx   d 1 50  Length = 211915 BitCount = 57 ID = 525
  95.023107 1   Statistic: D 13 R 0 XD 0 XR 0 E 0 O 0 B 0.32%
  95.023107 CAN 1 Status:chip status error active
  95.892221 1  201             Rx   d 1 2A  Length = 215914 BitCount = 58 ID = 513
  95.892449 1  202             Rx   d 1 5B  Length = 211930 BitCount = 57 ID = 514
  95.892677 1  203             Rx   d 1 39  Length = 211914 BitCount = 57 ID = 515
  95.892905 1  204             Rx   d 1 0E  Length = 211914 BitCount = 57 ID = 516
  95.893137 1  205             Rx   d 1 39  Length = 215915 BitCount = 58 ID = 517
  95.893365 1  206             Rx   d 1 5B  Length = 211914 BitCount = 57 ID = 518
  95.893593 1  207             Rx   d 1 5B  Length = 211914 BitCount = 57 ID = 519
  95.893821 1  208             Rx   d 1 5B  Length = 211914 BitCount = 57 ID = 520
  95.894057 1  209             Rx   d 1 60  Length = 219915 BitCount = 59 ID = 521
  95.894293 1  20A             Rx   d 1 2A  Length = 219930 BitCount = 59 ID = 522
  95.894637 1  20B             Rx   d 4 1C 00 00 00  Length = 327915 BitCount = 86 ID = 523
  95.894993 1  20C             Rx   d 4 00 00 00 00  Length = 339914 BitCount = 89 ID = 524
  95.895221 1  20D             Rx   d 1 50  Length = 211914 BitCount = 57 ID = 525
  96.023131 1   Statistic: D 13 R 0 XD 0 XR 0 E 0 O 0 B 0.32%
  96.023131 CAN 1 Status:chip status error active
  97.023160 1   Statistic: D 0 R 0 XD 0 XR 0 E 0 O 0 B 0.00%
  97.023160 CAN 1 Status:chip status error active
  97.392135 1  201             Rx   d 1 29  Length = 211914 BitCount = 57 ID = 513
  97.392363 1  202             Rx   d 1 5B  Length = 211930 BitCount = 57 ID = 514
  97.392603 1  203             Rx   d 1 38  Length = 223914 BitCount = 60 ID = 515
  97.392831 1  204             Rx   d 1 0C  Length = 211914 BitCount = 57 ID = 516
  97.393059 1  205             Rx   d 1 38  Length = 211915 BitCount = 57 ID = 517
  97.393287 1  206             Rx   d 1 5B  Length = 211914 BitCount = 57 ID = 518
  97.393515 1  207             Rx   d 1 5B  Length = 211914 BitCount = 57 ID = 519
  97.393743 1  208             Rx   d 1 5B  Length = 211914 BitCount = 57 ID = 520
  97.393979 1  209             Rx   d 1 60  Length = 219915 BitCount = 59 ID = 521
  97.394207 1  20A             Rx   d 1 29  Length = 211930 BitCount = 57 ID = 522
  97.394551 1  20B             Rx   d 4 1C 00 00 00  Length = 327915 BitCount = 86 ID = 523
  97.394907 1  20C             Rx   d 4 00 00 00 00  Length = 339914 BitCount = 89 ID = 524
  97.395135 1  20D             Rx   d 1 50  Length = 211914 BitCount = 57 ID = 525
  98.023193 1   Statistic: D 13 R 0 XD 0 XR 0 E 0 O 0 B 0.32%
  98.023193 CAN 1 Status:chip status error active
  98.892050 1  201             Rx   d 1 29  Length = 211915 BitCount = 57 ID = 513
  98.892278 1  202             Rx   d 1 5B  Length = 211914 BitCount = 57 ID = 514
  98.892518 1  203             Rx   d 1 38  Length = 223914 BitCount = 60 ID = 515
  98.892746 1  204             Rx   d 1 0C  Length = 211930 BitCount = 57 ID = 516
  98.892974 1  205             Rx   d 1 38  Length = 211914 BitCount = 57 ID = 517
  98.893202 1  206             Rx   d 1 5B  Length = 211914 BitCount = 57 ID = 518
  98.893430 1  207             Rx   d 1 5B  Length = 211930 BitCount = 57 ID = 519
  98.893658 1  208             Rx   d 1 5B  Length = 211914 BitCount = 57 ID = 520
  98.893894 1  209             Rx   d 1 60  Length = 219914 BitCount = 59 ID = 521
  98.894122 1  20A             Rx   d 1 29  Length = 211914 BitCount = 57 ID = 522
  98.894466 1  20B             Rx   d 4 1D 00 00 00  Length = 327915 BitCount = 86 ID = 523
  98.894822 1  20C             Rx   d 4 00 00 00 00  Length = 339914 BitCount = 89 ID = 524
  98.895050 1  20D             Rx   d 1 50  Length = 211914 BitCount = 57 ID = 525
  99.023226 1   Statistic: D 13 R 0 XD 0 XR 0 E 0 O 0 B 0.32%
  99.023226 CAN 1 Status:chip status error active
 100.023259 1   Statistic: D 0 R 0 XD 0 XR 0 E 0 O 0 B 0.00%
 100.023259 CAN 1 Status:chip status error active
 100.391974 1  201             Rx   d 1 28  Length = 215914 BitCount = 58 ID = 513
 100.392202 1  202             Rx   d 1 5B  Length = 211915 BitCount = 57 ID = 514
 100.392430 1  203             Rx   d 1 37  Length = 211914 BitCount = 57 ID = 515
 100.392658 1  204             Rx   d 1 0A  Length = 211914 BitCount = 57 ID = 516
 100.392890 1  205             Rx   d 1 37  Length = 215914 BitCount = 58 ID = 517
 100.393118 1  206             Rx   d 1 5B  Length = 211915 BitCount = 57 ID = 518
 100.393346 1  207             Rx   d 1 5B  Length = 211930 BitCount = 57 ID = 519
 100.393574 1  208             Rx   d 1 5B  Length = 211915 BitCount = 57 ID = 520
 100.393810 1  209             Rx   d 1 60  Length = 219914 BitCount = 59 ID = 521
 100.394042 1  20A             Rx   d 1 28  Length = 215929 BitCount = 58 ID = 522
 100.394386 1  20B             Rx   d 4 1D 00 00 00  Length = 327914 BitCount = 86 ID = 523
 100.394742 1  20C             Rx   d 4 00 00 00 00  Length = 339914 BitCount = 89 ID = 524
 100.394970 1  20D             Rx   d 1 50  Length = 211915 BitCount = 57 ID = 525
 101.023293 1   Statistic: D 13 R 0 XD 0 XR 0 E 0 O 0 B 0.32%
 101.023293 CAN 1 Status:chip status error active
 101.891897 1  201             Rx   d 1 26  Length = 215915 BitCount = 58 ID = 513
 101.892125 1  202             Rx   d 1 5B  Length = 211914 BitCount = 57 ID = 514
 101.892353 1  203             Rx   d 1 36  Length = 211914 BitCount = 57 ID = 515
 101.892585 1  204             Rx   d 1 08  Length = 215930 BitCount = 58 ID = 516
 101.892813 1  205             Rx   d 1 36  Length = 211914 BitCount = 57 ID = 517
 101.893041 1  206             Rx   d 1 5B  Length = 211914 BitCount = 57 ID = 518
 101.893269 1  207             Rx   d 1 5B  Length = 211915 BitCount = 57 ID = 519
 101.893497 1  208             Rx   d 1 5B  Length = 211914 BitCount = 57 ID = 520
 101.893733 1  209             Rx   d 1 60  Length = 219914 BitCount = 59 ID = 521
 101.893961 1  20A             Rx   d 1 26  Length = 211914 BitCount = 57 ID = 522
 101.894309 1  20B             Rx   d 4 1E 00 00 00  Length = 331915 BitCount = 87 ID = 523
 101.894665 1  20C             Rx   d 4 00 00 00 00  Length = 339914 BitCount = 89 ID = 524
 101.894893 1  20D             Rx   d 1 50  Length = 211914 BitCount = 57 ID = 525
 102.023328 1   Statistic: D 13 R 0 XD 0 XR 0 E 0 O 0 B 0.32%
 102.023328 CAN 1 Status:chip status error active
 103.021843 1  301             Tx   d 8 80 00 00 00 00 00 00 00  Length = 488015 BitCount = 125 ID = 769
 103.022347 1  444             Rx   d 8 80 00 00 00 00 00 00 00  Length = 483910 BitCount = 125 ID = 1092
 103.023359 1   Statistic: D 2 R 0 XD 0 XR 0 E 0 O 0 B 0.09%
 103.023359 CAN 1 Status:chip status error active
 103.391814 1  201             Rx   d 1 25  Length = 211914 BitCount = 57 ID = 513
 103.392042 1  202             Rx   d 1 5B  Length = 211915 BitCount = 57 ID = 514
 103.392274 1  203             Rx   d 1 35  Length = 215914 BitCount = 58 ID = 515
 103.392506 1  204             Rx   d 1 06  Length = 215914 BitCount = 58 ID = 516
 103.392734 1  205             Rx   d 1 35  Length = 211914 BitCount = 57 ID = 517
 103.392962 1  206             Rx   d 1 5B  Length = 211915 BitCount = 57 ID = 518
 103.393190 1  207             Rx   d 1 5B  Length = 211914 BitCount = 57 ID = 519
 103.393418 1  208             Rx   d 1 5B  Length = 211914 BitCount = 57 ID = 520
 103.393646 1  209             Rx   d 1 99  Length = 211930 BitCount = 57 ID = 521
 103.393878 1  20A             Rx   d 1 25  Length = 215914 BitCount = 58 ID = 522
 103.394226 1  20B             Rx   d 4 1E 00 00 00  Length = 331914 BitCount = 87 ID = 523
 103.394574 1  20C             Rx   d 4 10 00 00 00  Length = 331915 BitCount = 87 ID = 524
 103.394805 1  20D             Rx   d 1 80  Length = 215914 BitCount = 58 ID = 525
 104.023387 1   Statistic: D 13 R 0 XD 0 XR 0 E 0 O 0 B 0.32%
 104.023387 CAN 1 Status:chip status error active
 104.891723 1  201             Rx   d 1 25  Length = 211914 BitCount = 57 ID = 513
 104.891951 1  202             Rx   d 1 5B  Length = 211914 BitCount = 57 ID = 514
 104.892183 1  203             Rx   d 1 35  Length = 215929 BitCount = 58 ID = 515
 104.892415 1  204             Rx   d 1 06  Length = 215914 BitCount = 58 ID = 516
 104.892643 1  205             Rx   d 1 35  Length = 211915 BitCount = 57 ID = 517
 104.892871 1  206             Rx   d 1 5B  Length = 211914 BitCount = 57 ID = 518
 104.893099 1  207             Rx   d 1 5B  Length = 211914 BitCount = 57 ID = 519
 104.893327 1  208             Rx   d 1 5B  Length = 211914 BitCount = 57 ID = 520
 104.893555 1  209             Rx   d 1 99  Length = 211914 BitCount = 57 ID = 521
 104.893787 1  20A             Rx   d 1 25  Length = 215914 BitCount = 58 ID = 522
 104.894135 1  20B             Rx   d 4 1F 00 00 00  Length = 331926 BitCount = 87 ID = 523
 104.894483 1  20C             Rx   d 4 10 00 00 00  Length = 331926 BitCount = 87 ID = 524
 104.894715 1  20D             Rx   d 1 80  Length = 215930 BitCount = 58 ID = 525
 105.023417 1   Statistic: D 13 R 0 XD 0 XR 0 E 0 O 0 B 0.32%
 105.023417 CAN 1 Status:chip status error active
 106.023447 1   Statistic: D 0 R 0 XD 0 XR 0 E 0 O 0 B 0.00%
 106.023447 CAN 1 Status:chip status error active
 106.391640 1  201             Rx   d 1 24  Length = 211914 BitCount = 57 ID = 513
 106.391868 1  202             Rx   d 1 5A  Length = 211914 BitCount = 57 ID = 514
 106.392096 1  203             Rx   d 1 34  Length = 211915 BitCount = 57 ID = 515
 106.392332 1  204             Rx   d 1 04  Length = 219914 BitCount = 59 ID = 516
 106.392560 1  205             Rx   d 1 34  Length = 211914 BitCount = 57 ID = 517
 106.392788 1  206             Rx   d 1 5A  Length = 211914 BitCount = 57 ID = 518
 106.393016 1  207             Rx   d 1 5A  Length = 211915 BitCount = 57 ID = 519
 106.393243 1  208             Rx   d 1 5A  Length = 211914 BitCount = 57 ID = 520
 106.393471 1  209             Rx   d 1 99  Length = 211914 BitCount = 57 ID = 521
 106.393699 1  20A             Rx   d 1 24  Length = 211930 BitCount = 57 ID = 522
 106.394047 1  20B             Rx   d 4 1F 00 00 00  Length = 331914 BitCount = 87 ID = 523
 106.394395 1  20C             Rx   d 4 10 00 00 00  Length = 331914 BitCount = 87 ID = 524
 106.394627 1  20D             Rx   d 1 80  Length = 215914 BitCount = 58 ID = 525
 107.023480 1   Statistic: D 13 R 0 XD 0 XR 0 E 0 O 0 B 0.32%
 107.023480 CAN 1 Status:chip status error active
 107.891558 1  201             Rx   d 1 22  Length = 211915 BitCount = 57 ID = 513
 107.891786 1  202             Rx   d 1 5A  Length = 211914 BitCount = 57 ID = 514
 107.892014 1  203             Rx   d 1 33  Length = 211930 BitCount = 57 ID = 515
 107.892246 1  204             Rx   d 1 02  Length = 215914 BitCount = 58 ID = 516
 107.892474 1  205             Rx   d 1 33  Length = 211914 BitCount = 57 ID = 517
 107.892702 1  206             Rx   d 1 5A  Length = 211914 BitCount = 57 ID = 518
 107.892930 1  207             Rx   d 1 5A  Length = 211915 BitCount = 57 ID = 519
 107.893158 1  208             Rx   d 1 5A  Length = 211930 BitCount = 57 ID = 520
 107.893386 1  209             Rx   d 1 99  Length = 211915 BitCount = 57 ID = 521
 107.893614 1  20A             Rx   d 1 22  Length = 211914 BitCount = 57 ID = 522
 107.893958 1  20B             Rx   d 4 20 00 00 00  Length = 327925 BitCount = 86 ID = 523
 107.894306 1  20C             Rx   d 4 10 00 00 00  Length = 331926 BitCount = 87 ID = 524
 107.894537 1  20D             Rx   d 1 80  Length = 215914 BitCount = 58 ID = 525
 108.023512 1   Statistic: D 13 R 0 XD 0 XR 0 E 0 O 0 B 0.32%
 108.023512 CAN 1 Status:chip status error active
 109.023543 1   Statistic: D 0 R 0 XD 0 XR 0 E 0 O 0 B 0.00%
 109.023543 CAN 1 Status:chip status error active
 109.391483 1  201             Rx   d 1 21  Length = 215914 BitCount = 58 ID = 513
 109.391711 1  202             Rx   d 1 5A  Length = 211930 BitCount = 57 ID = 514
 109.391939 1  203             Rx   d 1 32  Length = 211914 BitCount = 57 ID = 515
 109.392175 1  204             Rx   d 1 00  Length = 219914 BitCount = 59 ID = 516
 109.392407 1  205             Rx   d 1 32  Length = 215915 BitCount = 58 ID = 517
 109.392635 1  206             Rx   d 1 5A  Length = 211914 BitCount = 57 ID = 518
 109.392862 1  207             Rx   d 1 5A  Length = 211914 BitCount = 57 ID = 519
 109.393090 1  208             Rx   d 1 5A  Length = 211914 BitCount = 57 ID = 520
 109.393318 1  209             Rx   d 1 99  Length = 211915 BitCount = 57 ID = 521
 109.393554 1  20A             Rx   d 1 21  Length = 219930 BitCount = 59 ID = 522
 109.393898 1  20B             Rx   d 4 20 00 00 00  Length = 327915 BitCount = 86 ID = 523
 109.394246 1  20C             Rx   d 4 10 00 00 00  Length = 331914 BitCount = 87 ID = 524
 109.394478 1  20D             Rx   d 1 80  Length = 215914 BitCount = 58 ID = 525
 110.023575 1   Statistic: D 13 R 0 XD 0 XR 0 E 0 O 0 B 0.32%
 110.023575 CAN 1 Status:chip status error active
 110.891396 1  201             Rx   d 1 21  Length = 215914 BitCount = 58 ID = 513
 110.891624 1  202             Rx   d 1 5A  Length = 211914 BitCount = 57 ID = 514
 110.891852 1  203             Rx   d 1 32  Length = 211914 BitCount = 57 ID = 515
 110.892088 1  204             Rx   d 1 00  Length = 219930 BitCount = 59 ID = 516
 110.892320 1  205             Rx   d 1 32  Length = 215914 BitCount = 58 ID = 517
 110.892548 1  206             Rx   d 1 5A  Length = 211914 BitCount = 57 ID = 518
 110.892776 1  207             Rx   d 1 5A  Length = 211914 BitCount = 57 ID = 519
 110.893004 1  208             Rx   d 1 5A  Length = 211915 BitCount = 57 ID = 520
 110.893232 1  209             Rx   d 1 99  Length = 211914 BitCount = 57 ID = 521
 110.893468 1  20A             Rx   d 1 21  Length = 219915 BitCount = 59 ID = 522
 110.893808 1  20B             Rx   d 4 21 00 00 00  Length = 323914 BitCount = 85 ID = 523
 110.894156 1  20C             Rx   d 4 10 00 00 00  Length = 331914 BitCount = 87 ID = 524
 110.894388 1  20D             Rx   d 1 80  Length = 215915 BitCount = 58 ID = 525
 111.023607 1   Statistic: D 13 R 0 XD 0 XR 0 E 0 O 0 B 0.32%
 111.023607 CAN 1 Status:chip status error active
 112.023639 1   Statistic: D 0 R 0 XD 0 XR 0 E 0 O 0 B 0.00%
 112.023639 CAN 1 Status:chip status error active
 112.391318 1  201             Rx   d 1 20  Length = 219914 BitCount = 59 ID = 513
 112.391546 1  202             Rx   d 1 5A  Length = 211914 BitCount = 57 ID = 514
 112.391778 1  203             Rx   d 1 31  Length = 215915 BitCount = 58 ID = 515
 112.392014 1  204             Rx   d 1 00  Length = 219930 BitCount = 59 ID = 516
 112.392242 1  205             Rx   d 1 31  Length = 211915 BitCount = 57 ID = 517
 112.392470 1  206             Rx   d 1 5A  Length = 211914 BitCount = 57 ID = 518
 112.392698 1  207             Rx   d 1 5A  Length = 211914 BitCount = 57 ID = 519
 112.392926 1  208             Rx   d 1 5A  Length = 211914 BitCount = 57 ID = 520
 112.393154 1  209             Rx   d 1 99  Length = 211915 BitCount = 57 ID = 521
 112.393386 1  20A             Rx   d 1 20  Length = 215914 BitCount = 58 ID = 522
 112.393726 1  20B             Rx   d 4 21 00 00 00  Length = 323914 BitCount = 85 ID = 523
 112.394074 1  20C             Rx   d 4 10 00 00 00  Length = 331914 BitCount = 87 ID = 524
 112.394306 1  20D             Rx   d 1 80  Length = 215914 BitCount = 58 ID = 525
 113.023671 1   Statistic: D 13 R 0 XD 0 XR 0 E 0 O 0 B 0.32%
 113.023671 CAN 1 Status:chip status error active
 113.891235 1  201             Rx   d 1 20  Length = 219914 BitCount = 59 ID = 513
 113.891463 1  202             Rx   d 1 5A  Length = 211914 BitCount = 57 ID = 514
 113.891691 1  203             Rx   d 1 30  Length = 211914 BitCount = 57 ID = 515
 113.891927 1  204             Rx   d 1 00  Length = 219930 BitCount = 59 ID = 516
 113.892159 1  205             Rx   d 1 30  Length = 215914 BitCount = 58 ID = 517
 113.892387 1  206             Rx   d 1 5A  Length = 211914 BitCount = 57 ID = 518
 113.892615 1  207             Rx   d 1 5A  Length = 211914 BitCount = 57 ID = 519
 113.892843 1  208             Rx   d 1 5A  Length = 211915 BitCount = 57 ID = 520
 113.893071 1  209             Rx   d 1 99  Length = 211914 BitCount = 57 ID = 521
 113.893303 1  20A             Rx   d 1 20  Length = 215915 BitCount = 58 ID = 522
 113.893643 1  20B             Rx   d 4 22 00 00 00  Length = 323914 BitCount = 85 ID = 523
 113.893991 1  20C             Rx   d 4 10 00 00 00  Length = 331914 BitCount = 87 ID = 524
 113.894223 1  20D             Rx   d 1 80  Length = 215915 BitCount = 58 ID = 525
 114.023702 1   Statistic: D 13 R 0 XD 0 XR 0 E 0 O 0 B 0.32%
 114.023702 CAN 1 Status:chip status error active
 115.023733 1   Statistic: D 0 R 0 XD 0 XR 0 E 0 O 0 B 0.00%
 115.023733 CAN 1 Status:chip status error active
 115.391152 1  201             Rx   d 1 1F  Length = 215914 BitCount = 58 ID = 513
 115.391384 1  202             Rx   d 1 59  Length = 215914 BitCount = 58 ID = 514
 115.391616 1  203             Rx   d 1 2F  Length = 215915 BitCount = 58 ID = 515
 115.391852 1  204             Rx   d 1 00  Length = 219930 BitCount = 59 ID = 516
 115.392080 1  205             Rx   d 1 2F  Length = 211915 BitCount = 57 ID = 517
 115.392312 1  206             Rx   d 1 59  Length = 215914 BitCount = 58 ID = 518
 115.392540 1  207             Rx   d 1 59  Length = 211929 BitCount = 57 ID = 519
 115.392772 1  208             Rx   d 1 59  Length = 215914 BitCount = 58 ID = 520
 115.393000 1  209             Rx   d 1 99  Length = 211915 BitCount = 57 ID = 521
 115.393232 1  20A             Rx   d 1 1F  Length = 215914 BitCount = 58 ID = 522
 115.393572 1  20B             Rx   d 4 22 00 00 00  Length = 323914 BitCount = 85 ID = 523
 115.393920 1  20C             Rx   d 4 10 00 00 00  Length = 331914 BitCount = 87 ID = 524
 115.394152 1  20D             Rx   d 1 80  Length = 215914 BitCount = 58 ID = 525
 116.023765 1   Statistic: D 13 R 0 XD 0 XR 0 E 0 O 0 B 0.32%
 116.023765 CAN 1 Status:chip status error active
 116.891065 1  201             Rx   d 1 1F  Length = 215930 BitCount = 58 ID = 513
 116.891297 1  202             Rx   d 1 59  Length = 215930 BitCount = 58 ID = 514
 116.891529 1  203             Rx   d 1 2F  Length = 215915 BitCount = 58 ID = 515
 116.891765 1  204             Rx   d 1 00  Length = 219914 BitCount = 59 ID = 516
 116.891993 1  205             Rx   d 1 2F  Length = 211929 BitCount = 57 ID = 517
 116.892225 1  206             Rx   d 1 59  Length = 215914 BitCount = 58 ID = 518
 116.892453 1  207             Rx   d 1 59  Length = 211915 BitCount = 57 ID = 519
 116.892685 1  208             Rx   d 1 59  Length = 215914 BitCount = 58 ID = 520
 116.892913 1  209             Rx   d 1 99  Length = 211915 BitCount = 57 ID = 521
 116.893145 1  20A             Rx   d 1 1F  Length = 215914 BitCount = 58 ID = 522
 116.893485 1  20B             Rx   d 4 23 00 00 00  Length = 323914 BitCount = 85 ID = 523
 116.893833 1  20C             Rx   d 4 10 00 00 00  Length = 331914 BitCount = 87 ID = 524
 116.894065 1  20D             Rx   d 1 80  Length = 215914 BitCount = 58 ID = 525
 117.023796 1   Statistic: D 13 R 0 XD 0 XR 0 E 0 O 0 B 0.32%
 117.023796 CAN 1 Status:chip status error active
 118.023828 1   Statistic: D 0 R 0 XD 0 XR 0 E 0 O 0 B 0.00%
 118.023828 CAN 1 Status:chip status error active
 118.390982 1  201             Rx   d 1 1E  Length = 215914 BitCount = 58 ID = 513
 118.391214 1  202             Rx   d 1 59  Length = 215914 BitCount = 58 ID = 514
 118.391442 1  203             Rx   d 1 2E  Length = 211915 BitCount = 57 ID = 515
 118.391678 1  204             Rx   d 1 00  Length = 219914 BitCount = 59 ID = 516
 118.391910 1  205             Rx   d 1 2E  Length = 215914 BitCount = 58 ID = 517
 118.392142 1  206             Rx   d 1 59  Length = 215930 BitCount = 58 ID = 518
 118.392370 1  207             Rx   d 1 59  Length = 211914 BitCount = 57 ID = 519
 118.392602 1  208             Rx   d 1 59  Length = 215914 BitCount = 58 ID = 520
 118.392830 1  209             Rx   d 1 99  Length = 211930 BitCount = 57 ID = 521
 118.393058 1  20A             Rx   d 1 1E  Length = 211914 BitCount = 57 ID = 522
 118.393398 1  20B             Rx   d 4 23 00 00 00  Length = 323914 BitCount = 85 ID = 523
 118.393746 1  20C             Rx   d 4 10 00 00 00  Length = 331914 BitCount = 87 ID = 524
 118.393978 1  20D             Rx   d 1 80  Length = 215914 BitCount = 58 ID = 525
 119.023859 1   Statistic: D 13 R 0 XD 0 XR 0 E 0 O 0 B 0.32%
 119.023859 CAN 1 Status:chip status error active
 119.890900 1  201             Rx   d 1 1E  Length = 215929 BitCount = 58 ID = 513
 119.891132 1  202             Rx   d 1 59  Length = 215930 BitCount = 58 ID = 514
 119.891368 1  203             Rx   d 1 2D  Length = 219914 BitCount = 59 ID = 515
 119.891604 1  204             Rx   d 1 00  Length = 219914 BitCount = 59 ID = 516
 119.891832 1  205             Rx   d 1 2D  Length = 211930 BitCount = 57 ID = 517
 119.892064 1  206             Rx   d 1 59  Length = 215914 BitCount = 58 ID = 518
 119.892292 1  207             Rx   d 1 59  Length = 211914 BitCount = 57 ID = 519
 119.892524 1  208             Rx   d 1 59  Length = 215914 BitCount = 58 ID = 520
 119.892752 1  209             Rx   d 1 99  Length = 211914 BitCount = 57 ID = 521
 119.892980 1  20A             Rx   d 1 1E  Length = 211930 BitCount = 57 ID = 522
 119.893324 1  20B             Rx   d 4 24 00 00 00  Length = 327915 BitCount = 86 ID = 523
 119.893672 1  20C             Rx   d 4 10 00 00 00  Length = 331914 BitCount = 87 ID = 524
 119.893904 1  20D             Rx   d 1 80  Length = 215914 BitCount = 58 ID = 525
 120.023891 1   Statistic: D 13 R 0 XD 0 XR 0 E 0 O 0 B 0.32%
 120.023891 CAN 1 Status:chip status error active
 121.023925 1   Statistic: D 0 R 0 XD 0 XR 0 E 0 O 0 B 0.00%
 121.023925 CAN 1 Status:chip status error active
 121.390819 1  201             Rx   d 1 1D  Length = 211914 BitCount = 57 ID = 513
 121.391051 1  202             Rx   d 1 59  Length = 215914 BitCount = 58 ID = 514
 121.391279 1  203             Rx   d 1 2C  Length = 211914 BitCount = 57 ID = 515
 121.391515 1  204             Rx   d 1 00  Length = 219914 BitCount = 59 ID = 516
 121.391747 1  205             Rx   d 1 2C  Length = 215915 BitCount = 58 ID = 517
 121.391979 1  206             Rx   d 1 59  Length = 215930 BitCount = 58 ID = 518
 121.392207 1  207             Rx   d 1 59  Length = 211915 BitCount = 57 ID = 519
 121.392439 1  208             Rx   d 1 59  Length = 215914 BitCount = 58 ID = 520
 121.392666 1  209             Rx   d 1 99  Length = 211929 BitCount = 57 ID = 521
 121.392894 1  20A             Rx   d 1 1D  Length = 211914 BitCount = 57 ID = 522
 121.393238 1  20B             Rx   d 4 24 00 00 00  Length = 327915 BitCount = 86 ID = 523
 121.393586 1  20C             Rx   d 4 10 00 00 00  Length = 331914 BitCount = 87 ID = 524
 121.393818 1  20D             Rx   d 1 80  Length = 215914 BitCount = 58 ID = 525
 122.023962 1   Statistic: D 13 R 0 XD 0 XR 0 E 0 O 0 B 0.32%
 122.023962 CAN 1 Status:chip status error active
 122.890738 1  201             Rx   d 1 1D  Length = 211915 BitCount = 57 ID = 513
 122.890970 1  202             Rx   d 1 59  Length = 215914 BitCount = 58 ID = 514
 122.891198 1  203             Rx   d 1 2C  Length = 211914 BitCount = 57 ID = 515
 122.891434 1  204             Rx   d 1 00  Length = 219930 BitCount = 59 ID = 516
 122.891666 1  205             Rx   d 1 2C  Length = 215914 BitCount = 58 ID = 517
 122.891898 1  206             Rx   d 1 59  Length = 215914 BitCount = 58 ID = 518
 122.892126 1  207             Rx   d 1 59  Length = 211930 BitCount = 57 ID = 519
 122.892358 1  208             Rx   d 1 59  Length = 215914 BitCount = 58 ID = 520
 122.892586 1  209             Rx   d 1 99  Length = 211914 BitCount = 57 ID = 521
 122.892814 1  20A             Rx   d 1 1D  Length = 211930 BitCount = 57 ID = 522
 122.893150 1  20B             Rx   d 4 25 00 00 00  Length = 319915 BitCount = 84 ID = 523
 122.893498 1  20C             Rx   d 4 10 00 00 00  Length = 331914 BitCount = 87 ID = 524
 122.893730 1  20D             Rx   d 1 80  Length = 215914 BitCount = 58 ID = 525
 123.023993 1   Statistic: D 13 R 0 XD 0 XR 0 E 0 O 0 B 0.32%
 123.023993 CAN 1 Status:chip status error active
 124.024021 1   Statistic: D 0 R 0 XD 0 XR 0 E 0 O 0 B 0.00%
 124.024021 CAN 1 Status:chip status error active
 124.390650 1  201             Rx   d 1 1C  Length = 211915 BitCount = 57 ID = 513
 124.390882 1  202             Rx   d 1 59  Length = 215914 BitCount = 58 ID = 514
 124.391110 1  203             Rx   d 1 2B  Length = 211930 BitCount = 57 ID = 515
 124.391346 1  204             Rx   d 1 00  Length = 219914 BitCount = 59 ID = 516
 124.391578 1  205             Rx   d 1 2B  Length = 215914 BitCount = 58 ID = 517
 124.391810 1  206             Rx   d 1 59  Length = 215914 BitCount = 58 ID = 518
 124.392038 1  207             Rx   d 1 59  Length = 211914 BitCount = 57 ID = 519
 124.392270 1  208             Rx   d 1 59  Length = 215914 BitCount = 58 ID = 520
 124.392498 1  209             Rx   d 1 99  Length = 211915 BitCount = 57 ID = 521
 124.392734 1  20A             Rx   d 1 1C  Length = 219914 BitCount = 59 ID = 522
 124.393070 1  20B             Rx   d 4 25 00 00 00  Length = 319925 BitCount = 84 ID = 523
 124.393418 1  20C             Rx   d 4 10 00 00 00  Length = 331926 BitCount = 87 ID = 524
 124.393650 1  20D             Rx   d 1 80  Length = 215930 BitCount = 58 ID = 525
 125.024049 1   Statistic: D 13 R 0 XD 0 XR 0 E 0 O 0 B 0.32%
 125.024049 CAN 1 Status:chip status error active
 125.890564 1  201             Rx   d 1 1C  Length = 211930 BitCount = 57 ID = 513
 125.890804 1  202             Rx   d 1 58  Length = 223930 BitCount = 60 ID = 514
 125.891032 1  203             Rx   d 1 2A  Length = 211914 BitCount = 57 ID = 515
 125.891268 1  204             Rx   d 1 00  Length = 219914 BitCount = 59 ID = 516
